# QuestaSim-64 vlog 2021.1 Compiler 2021.01 Jan 19 2021
# Start time: 11:35:22 on Oct 06,2026
# vlog -reportprogress 300 -sv -cover bcesft rtl/master.sv rtl/slave.sv rtl/apb_top.sv 
# -- Compiling module apb_master
# -- Compiling module apb_slave
# -- Compiling module apb_top
# 
# Top level modules:
# 	apb_top
# End time: 11:35:22 on Oct 06,2026, Elapsed time: 0:00:00
# Errors: 0, Warnings: 0
# QuestaSim-64 vlog 2021.1 Compiler 2021.01 Jan 19 2021
# Start time: 11:35:22 on Oct 06,2026
# vlog -reportprogress 300 -sv "+incdir+." rtl/apb_interface.sv 
# -- Compiling interface apb_interface
# 
# Top level modules:
# 	--none--
# End time: 11:35:22 on Oct 06,2026, Elapsed time: 0:00:00
# Errors: 0, Warnings: 0
# QuestaSim-64 vlog 2021.1 Compiler 2021.01 Jan 19 2021
# Start time: 11:35:22 on Oct 06,2026
# vlog -reportprogress 300 -sv "+incdir+." verification/env/apb_env_pkg.sv 
# -- Compiling package apb_env_pkg
# -- Importing package mtiUvm.uvm_pkg (uvm-1.1d Built-in)
# ** Note: (vlog-2286) verification/env/apb_env_pkg.sv(7): Using implicit +incdir+D:/programs/questasim download/uvm-1.1d/../verilog_src/uvm-1.1d/src from import uvm_pkg
# 
# Top level modules:
# 	--none--
# End time: 11:35:22 on Oct 06,2026, Elapsed time: 0:00:00
# Errors: 0, Warnings: 0
# QuestaSim-64 vlog 2021.1 Compiler 2021.01 Jan 19 2021
# Start time: 11:35:22 on Oct 06,2026
# vlog -reportprogress 300 -sv "+incdir+." verification/sequence/apb_sequence_pkg.sv 
# -- Compiling package apb_seq_pkg
# -- Importing package mtiUvm.uvm_pkg (uvm-1.1d Built-in)
# ** Note: (vlog-2286) verification/sequence/apb_sequence_pkg.sv(7): Using implicit +incdir+D:/programs/questasim download/uvm-1.1d/../verilog_src/uvm-1.1d/src from import uvm_pkg
# -- Importing package apb_env_pkg
# 
# Top level modules:
# 	--none--
# End time: 11:35:23 on Oct 06,2026, Elapsed time: 0:00:01
# Errors: 0, Warnings: 0
# QuestaSim-64 vlog 2021.1 Compiler 2021.01 Jan 19 2021
# Start time: 11:35:23 on Oct 06,2026
# vlog -reportprogress 300 -sv "+incdir+." verification/test/apb_test_pkg.sv 
# -- Compiling package apb_test_pkg
# -- Importing package mtiUvm.uvm_pkg (uvm-1.1d Built-in)
# ** Note: (vlog-2286) verification/test/apb_test_pkg.sv(7): Using implicit +incdir+D:/programs/questasim download/uvm-1.1d/../verilog_src/uvm-1.1d/src from import uvm_pkg
# -- Importing package apb_env_pkg
# -- Importing package apb_seq_pkg
# 
# Top level modules:
# 	--none--
# End time: 11:35:23 on Oct 06,2026, Elapsed time: 0:00:00
# Errors: 0, Warnings: 0
# QuestaSim-64 vlog 2021.1 Compiler 2021.01 Jan 19 2021
# Start time: 11:35:23 on Oct 06,2026
# vlog -reportprogress 300 -sv "+incdir+." verification/top/apb_tb.sv 
# -- Compiling module tb_top
# -- Importing package mtiUvm.uvm_pkg (uvm-1.1d Built-in)
# ** Note: (vlog-2286) verification/top/apb_tb.sv(6): Using implicit +incdir+D:/programs/questasim download/uvm-1.1d/../verilog_src/uvm-1.1d/src from import uvm_pkg
# -- Importing package apb_env_pkg
# -- Importing package apb_test_pkg
# -- Importing package apb_seq_pkg
# 
# Top level modules:
# 	tb_top
# End time: 11:35:23 on Oct 06,2026, Elapsed time: 0:00:00
# Errors: 0, Warnings: 0
# vsim -c -coverage -onfinish stop work.tb_top "+UVM_TESTNAME=apb_rd_wr_test" "+UVM_VERBOSITY=UVM_LOW" 
# Start time: 11:35:23 on Oct 06,2026
# ** Note: (vsim-3812) Design is being optimized...
# ** Note: (vopt-143) Recognized 1 FSM in module "apb_master(fast)".
# Loading sv_std.std
# Loading work.apb_interface(fast)
# Loading mtiUvm.uvm_pkg(fast)
# Loading work.apb_env_pkg(fast)
# Loading work.apb_seq_pkg(fast)
# Loading work.apb_test_pkg(fast)
# Loading mtiUvm.questa_uvm_pkg(fast)
# Loading work.tb_top(fast)
# Loading work.apb_top(fast)
# Loading D:/programs/questasim download/uvm-1.1d\win64\uvm_dpi.dll
# ----------------------------------------------------------------
# UVM-1.1d
# (C) 2007-2013 Mentor Graphics Corporation
# (C) 2007-2013 Cadence Design Systems, Inc.
# (C) 2006-2013 Synopsys, Inc.
# (C) 2011-2013 Cypress Semiconductor Corp.
# ----------------------------------------------------------------
# 
#   ***********       IMPORTANT RELEASE NOTES         ************
# 
#   You are using a version of the UVM library that has been compiled
#   with `UVM_NO_DEPRECATED undefined.
#   See http://www.eda.org/svdb/view.php?id=3313 for more details.
# 
#   You are using a version of the UVM library that has been compiled
#   with `UVM_OBJECT_MUST_HAVE_CONSTRUCTOR undefined.
#   See http://www.eda.org/svdb/view.php?id=3770 for more details.
# 
#       (Specify +UVM_NO_RELNOTES to turn off this notice)
# 
# UVM_INFO @ 0: reporter [RNTST] Running test apb_rd_wr_test...
# ** Warning: (vsim-8474) A higher value '4294967295' is found in bin 'all_ones' of Coverpoint 'cp_rdata'. It is invalid and will be ignored.
#    Time: 0 ps  Iteration: 7  Process: /uvm_pkg::uvm_phase::m_run_phases/#FORK#1847_4f63fe8c File: verification/env/apb_coverage.sv Line: 38
# ** Warning: (vsim-8549) After dropping the illegal, ignore or invalid values, the values list associated with scalar bin 'all_ones' in Coverpoint 'cp_rdata' of Covergroup instance '\/apb_env_pkg::apb_coverage::apb_cg ' has converged to empty list. The bin will be taken out of coverage calculation.
#    Time: 0 ps  Iteration: 7  Region: /uvm_pkg::uvm_phase::m_run_phases
# UVM_INFO @ 0: reporter [UVMTOP] UVM testbench topology:
# --------------------------------------------------------------
# Name                       Type                    Size  Value
# --------------------------------------------------------------
# uvm_test_top               apb_rd_wr_test          -     @471 
#   env                      apb_env                 -     @478 
#     agent                  apb_agent               -     @485 
#       drvh                 apb_driver              -     @508 
#         rsp_port           uvm_analysis_port       -     @523 
#         seq_item_port      uvm_seq_item_pull_port  -     @515 
#       monh                 apb_monitor             -     @531 
#         mon_ap             uvm_analysis_port       -     @648 
#       sqrh                 apb_sequencer           -     @538 
#         rsp_export         uvm_analysis_export     -     @545 
#         seq_item_export    uvm_seq_item_pull_imp   -     @639 
#         arbitration_queue  array                   0     -    
#         lock_queue         array                   0     -    
#         num_last_reqs      integral                32    'd1  
#         num_last_rsps      integral                32    'd1  
#     cov                    apb_coverage            -     @499 
#       cov_ap               uvm_analysis_imp        -     @662 
#     scb                    apb_scoreboard          -     @492 
#       sb_imp               uvm_analysis_imp        -     @670 
# --------------------------------------------------------------
# 
# UVM_INFO verification/test/apb_rd_wr_test.sv(17) @ 0: uvm_test_top [TEST] Starting apb_rd_wr_seq
# UVM_INFO verification/env/apb_driver.sv(52) @ 15000: uvm_test_top.env.agent.drvh [DRIVER] SEND WRITE: addr=0xaa wdata=0x4b55819e
# UVM_INFO verification/env/apb_driver.sv(56) @ 75000: uvm_test_top.env.agent.drvh [DRIVER] SEND READ : addr=0xaa
# UVM_INFO verification/env/apb_driver.sv(73) @ 85000: uvm_test_top.env.agent.drvh [DRIVER] GOT READ DATA: addr=0xaa rdata=0x0
# UVM_ERROR verification/env/apb_scoreboard.sv(67) @ 85000: uvm_test_top.env.scb [SCB] FAIL: addr=0xaa expected=0x4b55819e actual=0x0
# UVM_INFO verification/env/apb_driver.sv(52) @ 105000: uvm_test_top.env.agent.drvh [DRIVER] SEND WRITE: addr=0xcf wdata=0xf2859a43
# UVM_INFO verification/env/apb_driver.sv(56) @ 135000: uvm_test_top.env.agent.drvh [DRIVER] SEND READ : addr=0xcf
# UVM_INFO verification/env/apb_driver.sv(73) @ 145000: uvm_test_top.env.agent.drvh [DRIVER] GOT READ DATA: addr=0xcf rdata=0x0
# UVM_ERROR verification/env/apb_scoreboard.sv(67) @ 145000: uvm_test_top.env.scb [SCB] FAIL: addr=0xcf expected=0xf2859a43 actual=0x0
# UVM_INFO verification/env/apb_driver.sv(52) @ 165000: uvm_test_top.env.agent.drvh [DRIVER] SEND WRITE: addr=0xcd wdata=0x8be7fa8f
# UVM_INFO verification/env/apb_driver.sv(56) @ 195000: uvm_test_top.env.agent.drvh [DRIVER] SEND READ : addr=0xcd
# UVM_INFO verification/env/apb_driver.sv(73) @ 205000: uvm_test_top.env.agent.drvh [DRIVER] GOT READ DATA: addr=0xcd rdata=0x1
# UVM_ERROR verification/env/apb_scoreboard.sv(67) @ 205000: uvm_test_top.env.scb [SCB] FAIL: addr=0xcd expected=0x8be7fa8f actual=0x1
# UVM_INFO verification/env/apb_driver.sv(52) @ 225000: uvm_test_top.env.agent.drvh [DRIVER] SEND WRITE: addr=0xb7 wdata=0xb0572db0
# UVM_INFO verification/env/apb_driver.sv(56) @ 255000: uvm_test_top.env.agent.drvh [DRIVER] SEND READ : addr=0xb7
# UVM_INFO verification/env/apb_driver.sv(73) @ 265000: uvm_test_top.env.agent.drvh [DRIVER] GOT READ DATA: addr=0xb7 rdata=0x1
# UVM_ERROR verification/env/apb_scoreboard.sv(67) @ 265000: uvm_test_top.env.scb [SCB] FAIL: addr=0xb7 expected=0xb0572db0 actual=0x1
# UVM_INFO verification/env/apb_driver.sv(52) @ 285000: uvm_test_top.env.agent.drvh [DRIVER] SEND WRITE: addr=0x32 wdata=0x63db05b2
# UVM_INFO verification/env/apb_driver.sv(56) @ 315000: uvm_test_top.env.agent.drvh [DRIVER] SEND READ : addr=0x32
# UVM_INFO verification/env/apb_driver.sv(73) @ 325000: uvm_test_top.env.agent.drvh [DRIVER] GOT READ DATA: addr=0x32 rdata=0x0
# UVM_ERROR verification/env/apb_scoreboard.sv(67) @ 325000: uvm_test_top.env.scb [SCB] FAIL: addr=0x32 expected=0x63db05b2 actual=0x0
# UVM_INFO verification/env/apb_driver.sv(52) @ 345000: uvm_test_top.env.agent.drvh [DRIVER] SEND WRITE: addr=0xdf wdata=0xb20d05fb
# UVM_INFO verification/env/apb_driver.sv(56) @ 375000: uvm_test_top.env.agent.drvh [DRIVER] SEND READ : addr=0xdf
# UVM_INFO verification/env/apb_driver.sv(73) @ 385000: uvm_test_top.env.agent.drvh [DRIVER] GOT READ DATA: addr=0xdf rdata=0x0
# UVM_ERROR verification/env/apb_scoreboard.sv(67) @ 385000: uvm_test_top.env.scb [SCB] FAIL: addr=0xdf expected=0xb20d05fb actual=0x0
# UVM_INFO verification/env/apb_driver.sv(52) @ 405000: uvm_test_top.env.agent.drvh [DRIVER] SEND WRITE: addr=0x7b wdata=0xb00e7202
# UVM_INFO verification/env/apb_driver.sv(56) @ 435000: uvm_test_top.env.agent.drvh [DRIVER] SEND READ : addr=0x7b
# UVM_INFO verification/env/apb_driver.sv(73) @ 445000: uvm_test_top.env.agent.drvh [DRIVER] GOT READ DATA: addr=0x7b rdata=0x1
# UVM_ERROR verification/env/apb_scoreboard.sv(67) @ 445000: uvm_test_top.env.scb [SCB] FAIL: addr=0x7b expected=0xb00e7202 actual=0x1
# UVM_INFO verification/env/apb_driver.sv(52) @ 465000: uvm_test_top.env.agent.drvh [DRIVER] SEND WRITE: addr=0xd0 wdata=0xd031f55d
# UVM_INFO verification/env/apb_driver.sv(56) @ 495000: uvm_test_top.env.agent.drvh [DRIVER] SEND READ : addr=0xd0
# UVM_INFO verification/env/apb_driver.sv(73) @ 505000: uvm_test_top.env.agent.drvh [DRIVER] GOT READ DATA: addr=0xd0 rdata=0x0
# UVM_ERROR verification/env/apb_scoreboard.sv(67) @ 505000: uvm_test_top.env.scb [SCB] FAIL: addr=0xd0 expected=0xd031f55d actual=0x0
# UVM_INFO verification/env/apb_driver.sv(52) @ 525000: uvm_test_top.env.agent.drvh [DRIVER] SEND WRITE: addr=0x4d wdata=0x762f34ca
# UVM_INFO verification/env/apb_driver.sv(56) @ 555000: uvm_test_top.env.agent.drvh [DRIVER] SEND READ : addr=0x4d
# UVM_INFO verification/env/apb_driver.sv(73) @ 565000: uvm_test_top.env.agent.drvh [DRIVER] GOT READ DATA: addr=0x4d rdata=0x1
# UVM_ERROR verification/env/apb_scoreboard.sv(67) @ 565000: uvm_test_top.env.scb [SCB] FAIL: addr=0x4d expected=0x762f34ca actual=0x1
# UVM_INFO verification/env/apb_driver.sv(52) @ 585000: uvm_test_top.env.agent.drvh [DRIVER] SEND WRITE: addr=0x1c wdata=0x936b3724
# UVM_INFO verification/env/apb_driver.sv(56) @ 615000: uvm_test_top.env.agent.drvh [DRIVER] SEND READ : addr=0x1c
# UVM_INFO verification/env/apb_driver.sv(73) @ 625000: uvm_test_top.env.agent.drvh [DRIVER] GOT READ DATA: addr=0x1c rdata=0x0
# UVM_ERROR verification/env/apb_scoreboard.sv(67) @ 625000: uvm_test_top.env.scb [SCB] FAIL: addr=0x1c expected=0x936b3724 actual=0x0
# UVM_INFO verification/env/apb_driver.sv(52) @ 645000: uvm_test_top.env.agent.drvh [DRIVER] SEND WRITE: addr=0xb3 wdata=0x31c7e84f
# UVM_INFO verification/env/apb_driver.sv(56) @ 675000: uvm_test_top.env.agent.drvh [DRIVER] SEND READ : addr=0xb3
# UVM_INFO verification/env/apb_driver.sv(73) @ 685000: uvm_test_top.env.agent.drvh [DRIVER] GOT READ DATA: addr=0xb3 rdata=0x0
# UVM_ERROR verification/env/apb_scoreboard.sv(67) @ 685000: uvm_test_top.env.scb [SCB] FAIL: addr=0xb3 expected=0x31c7e84f actual=0x0
# UVM_INFO verification/env/apb_driver.sv(52) @ 705000: uvm_test_top.env.agent.drvh [DRIVER] SEND WRITE: addr=0x56 wdata=0xe8f822df
# UVM_INFO verification/env/apb_driver.sv(56) @ 735000: uvm_test_top.env.agent.drvh [DRIVER] SEND READ : addr=0x56
# UVM_INFO verification/env/apb_driver.sv(73) @ 745000: uvm_test_top.env.agent.drvh [DRIVER] GOT READ DATA: addr=0x56 rdata=0x1
# UVM_ERROR verification/env/apb_scoreboard.sv(67) @ 745000: uvm_test_top.env.scb [SCB] FAIL: addr=0x56 expected=0xe8f822df actual=0x1
# UVM_INFO verification/env/apb_driver.sv(52) @ 765000: uvm_test_top.env.agent.drvh [DRIVER] SEND WRITE: addr=0xd6 wdata=0xfa17baeb
# UVM_INFO verification/env/apb_driver.sv(56) @ 795000: uvm_test_top.env.agent.drvh [DRIVER] SEND READ : addr=0xd6
# UVM_INFO verification/env/apb_driver.sv(73) @ 805000: uvm_test_top.env.agent.drvh [DRIVER] GOT READ DATA: addr=0xd6 rdata=0x1
# UVM_ERROR verification/env/apb_scoreboard.sv(67) @ 805000: uvm_test_top.env.scb [SCB] FAIL: addr=0xd6 expected=0xfa17baeb actual=0x1
# UVM_INFO verification/env/apb_driver.sv(52) @ 825000: uvm_test_top.env.agent.drvh [DRIVER] SEND WRITE: addr=0x8 wdata=0xaf671a07
# UVM_INFO verification/env/apb_driver.sv(56) @ 855000: uvm_test_top.env.agent.drvh [DRIVER] SEND READ : addr=0x8
# UVM_INFO verification/env/apb_driver.sv(73) @ 865000: uvm_test_top.env.agent.drvh [DRIVER] GOT READ DATA: addr=0x8 rdata=0x1
# UVM_ERROR verification/env/apb_scoreboard.sv(67) @ 865000: uvm_test_top.env.scb [SCB] FAIL: addr=0x8 expected=0xaf671a07 actual=0x1
# UVM_INFO verification/env/apb_driver.sv(52) @ 885000: uvm_test_top.env.agent.drvh [DRIVER] SEND WRITE: addr=0x84 wdata=0x11d43948
# UVM_INFO verification/env/apb_driver.sv(56) @ 915000: uvm_test_top.env.agent.drvh [DRIVER] SEND READ : addr=0x84
# UVM_INFO verification/env/apb_driver.sv(73) @ 925000: uvm_test_top.env.agent.drvh [DRIVER] GOT READ DATA: addr=0x84 rdata=0x1
# UVM_ERROR verification/env/apb_scoreboard.sv(67) @ 925000: uvm_test_top.env.scb [SCB] FAIL: addr=0x84 expected=0x11d43948 actual=0x1
# UVM_INFO verification/env/apb_driver.sv(52) @ 945000: uvm_test_top.env.agent.drvh [DRIVER] SEND WRITE: addr=0x5 wdata=0x4478fddb
# UVM_INFO verification/env/apb_driver.sv(56) @ 975000: uvm_test_top.env.agent.drvh [DRIVER] SEND READ : addr=0x5
# UVM_INFO verification/env/apb_driver.sv(73) @ 985000: uvm_test_top.env.agent.drvh [DRIVER] GOT READ DATA: addr=0x5 rdata=0x0
# UVM_ERROR verification/env/apb_scoreboard.sv(67) @ 985000: uvm_test_top.env.scb [SCB] FAIL: addr=0x5 expected=0x4478fddb actual=0x0
# UVM_INFO verification/env/apb_driver.sv(52) @ 1005000: uvm_test_top.env.agent.drvh [DRIVER] SEND WRITE: addr=0x14 wdata=0x34eaff31
# UVM_INFO verification/env/apb_driver.sv(56) @ 1035000: uvm_test_top.env.agent.drvh [DRIVER] SEND READ : addr=0x14
# UVM_INFO verification/env/apb_driver.sv(73) @ 1045000: uvm_test_top.env.agent.drvh [DRIVER] GOT READ DATA: addr=0x14 rdata=0x1
# UVM_ERROR verification/env/apb_scoreboard.sv(67) @ 1045000: uvm_test_top.env.scb [SCB] FAIL: addr=0x14 expected=0x34eaff31 actual=0x1
# UVM_INFO verification/env/apb_driver.sv(52) @ 1065000: uvm_test_top.env.agent.drvh [DRIVER] SEND WRITE: addr=0xc9 wdata=0x4c9f2dea
# UVM_INFO verification/env/apb_driver.sv(56) @ 1095000: uvm_test_top.env.agent.drvh [DRIVER] SEND READ : addr=0xc9
# UVM_INFO verification/env/apb_driver.sv(73) @ 1105000: uvm_test_top.env.agent.drvh [DRIVER] GOT READ DATA: addr=0xc9 rdata=0x1
# UVM_ERROR verification/env/apb_scoreboard.sv(67) @ 1105000: uvm_test_top.env.scb [SCB] FAIL: addr=0xc9 expected=0x4c9f2dea actual=0x1
# UVM_INFO verification/env/apb_driver.sv(52) @ 1125000: uvm_test_top.env.agent.drvh [DRIVER] SEND WRITE: addr=0xfc wdata=0x7d86fb26
# UVM_INFO verification/env/apb_driver.sv(56) @ 1155000: uvm_test_top.env.agent.drvh [DRIVER] SEND READ : addr=0xfc
# UVM_INFO verification/env/apb_driver.sv(73) @ 1165000: uvm_test_top.env.agent.drvh [DRIVER] GOT READ DATA: addr=0xfc rdata=0x0
# UVM_ERROR verification/env/apb_scoreboard.sv(67) @ 1165000: uvm_test_top.env.scb [SCB] FAIL: addr=0xfc expected=0x7d86fb26 actual=0x0
# UVM_INFO verification/env/apb_driver.sv(52) @ 1185000: uvm_test_top.env.agent.drvh [DRIVER] SEND WRITE: addr=0xa0 wdata=0x69564b33
# UVM_INFO verification/env/apb_driver.sv(56) @ 1215000: uvm_test_top.env.agent.drvh [DRIVER] SEND READ : addr=0xa0
# UVM_INFO verification/env/apb_driver.sv(73) @ 1225000: uvm_test_top.env.agent.drvh [DRIVER] GOT READ DATA: addr=0xa0 rdata=0x0
# UVM_ERROR verification/env/apb_scoreboard.sv(67) @ 1225000: uvm_test_top.env.scb [SCB] FAIL: addr=0xa0 expected=0x69564b33 actual=0x0
# UVM_INFO verification/env/apb_driver.sv(52) @ 1245000: uvm_test_top.env.agent.drvh [DRIVER] SEND WRITE: addr=0xee wdata=0x3e6ed544
# UVM_INFO verification/env/apb_driver.sv(56) @ 1275000: uvm_test_top.env.agent.drvh [DRIVER] SEND READ : addr=0xee
# UVM_INFO verification/env/apb_driver.sv(73) @ 1285000: uvm_test_top.env.agent.drvh [DRIVER] GOT READ DATA: addr=0xee rdata=0x1
# UVM_ERROR verification/env/apb_scoreboard.sv(67) @ 1285000: uvm_test_top.env.scb [SCB] FAIL: addr=0xee expected=0x3e6ed544 actual=0x1
# UVM_INFO verification/env/apb_driver.sv(52) @ 1305000: uvm_test_top.env.agent.drvh [DRIVER] SEND WRITE: addr=0xdc wdata=0x1289e6a0
# UVM_INFO verification/env/apb_driver.sv(56) @ 1335000: uvm_test_top.env.agent.drvh [DRIVER] SEND READ : addr=0xdc
# UVM_INFO verification/env/apb_driver.sv(73) @ 1345000: uvm_test_top.env.agent.drvh [DRIVER] GOT READ DATA: addr=0xdc rdata=0x0
# UVM_ERROR verification/env/apb_scoreboard.sv(67) @ 1345000: uvm_test_top.env.scb [SCB] FAIL: addr=0xdc expected=0x1289e6a0 actual=0x0
# UVM_INFO verification/env/apb_driver.sv(52) @ 1365000: uvm_test_top.env.agent.drvh [DRIVER] SEND WRITE: addr=0xa0 wdata=0xf5d4de18
# UVM_INFO verification/env/apb_driver.sv(56) @ 1395000: uvm_test_top.env.agent.drvh [DRIVER] SEND READ : addr=0xa0
# UVM_INFO verification/env/apb_driver.sv(73) @ 1405000: uvm_test_top.env.agent.drvh [DRIVER] GOT READ DATA: addr=0xa0 rdata=0x0
# UVM_ERROR verification/env/apb_scoreboard.sv(67) @ 1405000: uvm_test_top.env.scb [SCB] FAIL: addr=0xa0 expected=0xf5d4de18 actual=0x0
# UVM_INFO verification/env/apb_driver.sv(52) @ 1425000: uvm_test_top.env.agent.drvh [DRIVER] SEND WRITE: addr=0xba wdata=0xd5e2ea68
# UVM_INFO verification/env/apb_driver.sv(56) @ 1455000: uvm_test_top.env.agent.drvh [DRIVER] SEND READ : addr=0xba
# UVM_INFO verification/env/apb_driver.sv(73) @ 1465000: uvm_test_top.env.agent.drvh [DRIVER] GOT READ DATA: addr=0xba rdata=0x0
# UVM_ERROR verification/env/apb_scoreboard.sv(67) @ 1465000: uvm_test_top.env.scb [SCB] FAIL: addr=0xba expected=0xd5e2ea68 actual=0x0
# UVM_INFO verification/env/apb_driver.sv(52) @ 1485000: uvm_test_top.env.agent.drvh [DRIVER] SEND WRITE: addr=0xf8 wdata=0x3ce9bcb
# UVM_INFO verification/env/apb_driver.sv(56) @ 1515000: uvm_test_top.env.agent.drvh [DRIVER] SEND READ : addr=0xf8
# UVM_INFO verification/env/apb_driver.sv(73) @ 1525000: uvm_test_top.env.agent.drvh [DRIVER] GOT READ DATA: addr=0xf8 rdata=0x0
# UVM_ERROR verification/env/apb_scoreboard.sv(67) @ 1525000: uvm_test_top.env.scb [SCB] FAIL: addr=0xf8 expected=0x3ce9bcb actual=0x0
# UVM_INFO verification/env/apb_driver.sv(52) @ 1545000: uvm_test_top.env.agent.drvh [DRIVER] SEND WRITE: addr=0xcf wdata=0xdd70111
# UVM_INFO verification/env/apb_driver.sv(56) @ 1575000: uvm_test_top.env.agent.drvh [DRIVER] SEND READ : addr=0xcf
# UVM_INFO verification/env/apb_driver.sv(73) @ 1585000: uvm_test_top.env.agent.drvh [DRIVER] GOT READ DATA: addr=0xcf rdata=0x1
# UVM_ERROR verification/env/apb_scoreboard.sv(67) @ 1585000: uvm_test_top.env.scb [SCB] FAIL: addr=0xcf expected=0xdd70111 actual=0x1
# UVM_INFO verification/env/apb_driver.sv(52) @ 1605000: uvm_test_top.env.agent.drvh [DRIVER] SEND WRITE: addr=0x17 wdata=0x6eab74da
# UVM_INFO verification/env/apb_driver.sv(56) @ 1635000: uvm_test_top.env.agent.drvh [DRIVER] SEND READ : addr=0x17
# UVM_INFO verification/env/apb_driver.sv(73) @ 1645000: uvm_test_top.env.agent.drvh [DRIVER] GOT READ DATA: addr=0x17 rdata=0x1
# UVM_ERROR verification/env/apb_scoreboard.sv(67) @ 1645000: uvm_test_top.env.scb [SCB] FAIL: addr=0x17 expected=0x6eab74da actual=0x1
# UVM_INFO verification/env/apb_driver.sv(52) @ 1665000: uvm_test_top.env.agent.drvh [DRIVER] SEND WRITE: addr=0xe wdata=0x1bb6c45c
# UVM_INFO verification/env/apb_driver.sv(56) @ 1695000: uvm_test_top.env.agent.drvh [DRIVER] SEND READ : addr=0xe
# UVM_INFO verification/env/apb_driver.sv(73) @ 1705000: uvm_test_top.env.agent.drvh [DRIVER] GOT READ DATA: addr=0xe rdata=0x0
# UVM_ERROR verification/env/apb_scoreboard.sv(67) @ 1705000: uvm_test_top.env.scb [SCB] FAIL: addr=0xe expected=0x1bb6c45c actual=0x0
# UVM_INFO verification/env/apb_driver.sv(52) @ 1725000: uvm_test_top.env.agent.drvh [DRIVER] SEND WRITE: addr=0x9f wdata=0x467ec8b0
# UVM_INFO verification/env/apb_driver.sv(56) @ 1755000: uvm_test_top.env.agent.drvh [DRIVER] SEND READ : addr=0x9f
# UVM_INFO verification/env/apb_driver.sv(73) @ 1765000: uvm_test_top.env.agent.drvh [DRIVER] GOT READ DATA: addr=0x9f rdata=0x0
# UVM_ERROR verification/env/apb_scoreboard.sv(67) @ 1765000: uvm_test_top.env.scb [SCB] FAIL: addr=0x9f expected=0x467ec8b0 actual=0x0
# UVM_INFO verification/env/apb_driver.sv(52) @ 1785000: uvm_test_top.env.agent.drvh [DRIVER] SEND WRITE: addr=0x41 wdata=0xefcc8c00
# UVM_INFO verification/env/apb_driver.sv(56) @ 1815000: uvm_test_top.env.agent.drvh [DRIVER] SEND READ : addr=0x41
# UVM_INFO verification/env/apb_driver.sv(73) @ 1825000: uvm_test_top.env.agent.drvh [DRIVER] GOT READ DATA: addr=0x41 rdata=0x0
# UVM_ERROR verification/env/apb_scoreboard.sv(67) @ 1825000: uvm_test_top.env.scb [SCB] FAIL: addr=0x41 expected=0xefcc8c00 actual=0x0
# UVM_INFO verification/env/apb_driver.sv(52) @ 1845000: uvm_test_top.env.agent.drvh [DRIVER] SEND WRITE: addr=0x77 wdata=0xb465bf11
# UVM_INFO verification/env/apb_driver.sv(56) @ 1875000: uvm_test_top.env.agent.drvh [DRIVER] SEND READ : addr=0x77
# UVM_INFO verification/env/apb_driver.sv(73) @ 1885000: uvm_test_top.env.agent.drvh [DRIVER] GOT READ DATA: addr=0x77 rdata=0x0
# UVM_ERROR verification/env/apb_scoreboard.sv(67) @ 1885000: uvm_test_top.env.scb [SCB] FAIL: addr=0x77 expected=0xb465bf11 actual=0x0
# UVM_INFO verification/env/apb_driver.sv(52) @ 1905000: uvm_test_top.env.agent.drvh [DRIVER] SEND WRITE: addr=0x7e wdata=0xbc4090e2
# UVM_INFO verification/env/apb_driver.sv(56) @ 1935000: uvm_test_top.env.agent.drvh [DRIVER] SEND READ : addr=0x7e
# UVM_INFO verification/env/apb_driver.sv(73) @ 1945000: uvm_test_top.env.agent.drvh [DRIVER] GOT READ DATA: addr=0x7e rdata=0x1
# UVM_ERROR verification/env/apb_scoreboard.sv(67) @ 1945000: uvm_test_top.env.scb [SCB] FAIL: addr=0x7e expected=0xbc4090e2 actual=0x1
# UVM_INFO verification/env/apb_driver.sv(52) @ 1965000: uvm_test_top.env.agent.drvh [DRIVER] SEND WRITE: addr=0x65 wdata=0xdd124aa2
# UVM_INFO verification/env/apb_driver.sv(56) @ 1995000: uvm_test_top.env.agent.drvh [DRIVER] SEND READ : addr=0x65
# UVM_INFO verification/env/apb_driver.sv(73) @ 2005000: uvm_test_top.env.agent.drvh [DRIVER] GOT READ DATA: addr=0x65 rdata=0x0
# UVM_ERROR verification/env/apb_scoreboard.sv(67) @ 2005000: uvm_test_top.env.scb [SCB] FAIL: addr=0x65 expected=0xdd124aa2 actual=0x0
# UVM_INFO verification/env/apb_driver.sv(52) @ 2025000: uvm_test_top.env.agent.drvh [DRIVER] SEND WRITE: addr=0xe2 wdata=0xe1f5c3e
# UVM_INFO verification/env/apb_driver.sv(56) @ 2055000: uvm_test_top.env.agent.drvh [DRIVER] SEND READ : addr=0xe2
# UVM_INFO verification/env/apb_driver.sv(73) @ 2065000: uvm_test_top.env.agent.drvh [DRIVER] GOT READ DATA: addr=0xe2 rdata=0x0
# UVM_ERROR verification/env/apb_scoreboard.sv(67) @ 2065000: uvm_test_top.env.scb [SCB] FAIL: addr=0xe2 expected=0xe1f5c3e actual=0x0
# UVM_INFO verification/env/apb_driver.sv(52) @ 2085000: uvm_test_top.env.agent.drvh [DRIVER] SEND WRITE: addr=0xe8 wdata=0xf46874a3
# UVM_INFO verification/env/apb_driver.sv(56) @ 2115000: uvm_test_top.env.agent.drvh [DRIVER] SEND READ : addr=0xe8
# UVM_INFO verification/env/apb_driver.sv(73) @ 2125000: uvm_test_top.env.agent.drvh [DRIVER] GOT READ DATA: addr=0xe8 rdata=0x0
# UVM_ERROR verification/env/apb_scoreboard.sv(67) @ 2125000: uvm_test_top.env.scb [SCB] FAIL: addr=0xe8 expected=0xf46874a3 actual=0x0
# UVM_INFO verification/env/apb_driver.sv(52) @ 2145000: uvm_test_top.env.agent.drvh [DRIVER] SEND WRITE: addr=0x7f wdata=0x81a946db
# UVM_INFO verification/env/apb_driver.sv(56) @ 2175000: uvm_test_top.env.agent.drvh [DRIVER] SEND READ : addr=0x7f
# UVM_INFO verification/env/apb_driver.sv(73) @ 2185000: uvm_test_top.env.agent.drvh [DRIVER] GOT READ DATA: addr=0x7f rdata=0x1
# UVM_ERROR verification/env/apb_scoreboard.sv(67) @ 2185000: uvm_test_top.env.scb [SCB] FAIL: addr=0x7f expected=0x81a946db actual=0x1
# UVM_INFO verification/env/apb_driver.sv(52) @ 2205000: uvm_test_top.env.agent.drvh [DRIVER] SEND WRITE: addr=0x7a wdata=0xcfb10ddb
# UVM_INFO verification/env/apb_driver.sv(56) @ 2235000: uvm_test_top.env.agent.drvh [DRIVER] SEND READ : addr=0x7a
# UVM_INFO verification/env/apb_driver.sv(73) @ 2245000: uvm_test_top.env.agent.drvh [DRIVER] GOT READ DATA: addr=0x7a rdata=0x1
# UVM_ERROR verification/env/apb_scoreboard.sv(67) @ 2245000: uvm_test_top.env.scb [SCB] FAIL: addr=0x7a expected=0xcfb10ddb actual=0x1
# UVM_INFO verification/env/apb_driver.sv(52) @ 2265000: uvm_test_top.env.agent.drvh [DRIVER] SEND WRITE: addr=0xd1 wdata=0x1132fea7
# UVM_INFO verification/env/apb_driver.sv(56) @ 2295000: uvm_test_top.env.agent.drvh [DRIVER] SEND READ : addr=0xd1
# UVM_INFO verification/env/apb_driver.sv(73) @ 2305000: uvm_test_top.env.agent.drvh [DRIVER] GOT READ DATA: addr=0xd1 rdata=0x1
# UVM_ERROR verification/env/apb_scoreboard.sv(67) @ 2305000: uvm_test_top.env.scb [SCB] FAIL: addr=0xd1 expected=0x1132fea7 actual=0x1
# UVM_INFO verification/env/apb_driver.sv(52) @ 2325000: uvm_test_top.env.agent.drvh [DRIVER] SEND WRITE: addr=0xcc wdata=0x3856632c
# UVM_INFO verification/env/apb_driver.sv(56) @ 2355000: uvm_test_top.env.agent.drvh [DRIVER] SEND READ : addr=0xcc
# UVM_INFO verification/env/apb_driver.sv(73) @ 2365000: uvm_test_top.env.agent.drvh [DRIVER] GOT READ DATA: addr=0xcc rdata=0x1
# UVM_ERROR verification/env/apb_scoreboard.sv(67) @ 2365000: uvm_test_top.env.scb [SCB] FAIL: addr=0xcc expected=0x3856632c actual=0x1
# UVM_INFO verification/env/apb_driver.sv(52) @ 2385000: uvm_test_top.env.agent.drvh [DRIVER] SEND WRITE: addr=0x87 wdata=0x23a1f581
# UVM_INFO verification/env/apb_driver.sv(56) @ 2415000: uvm_test_top.env.agent.drvh [DRIVER] SEND READ : addr=0x87
# UVM_INFO verification/env/apb_driver.sv(73) @ 2425000: uvm_test_top.env.agent.drvh [DRIVER] GOT READ DATA: addr=0x87 rdata=0x0
# UVM_ERROR verification/env/apb_scoreboard.sv(67) @ 2425000: uvm_test_top.env.scb [SCB] FAIL: addr=0x87 expected=0x23a1f581 actual=0x0
# UVM_INFO verification/env/apb_driver.sv(52) @ 2445000: uvm_test_top.env.agent.drvh [DRIVER] SEND WRITE: addr=0x22 wdata=0x65314bb7
# UVM_INFO verification/env/apb_driver.sv(56) @ 2475000: uvm_test_top.env.agent.drvh [DRIVER] SEND READ : addr=0x22
# UVM_INFO verification/env/apb_driver.sv(73) @ 2485000: uvm_test_top.env.agent.drvh [DRIVER] GOT READ DATA: addr=0x22 rdata=0x1
# UVM_ERROR verification/env/apb_scoreboard.sv(67) @ 2485000: uvm_test_top.env.scb [SCB] FAIL: addr=0x22 expected=0x65314bb7 actual=0x1
# UVM_INFO verification/env/apb_driver.sv(52) @ 2505000: uvm_test_top.env.agent.drvh [DRIVER] SEND WRITE: addr=0x5d wdata=0x712fcf4
# UVM_INFO verification/env/apb_driver.sv(56) @ 2535000: uvm_test_top.env.agent.drvh [DRIVER] SEND READ : addr=0x5d
# UVM_INFO verification/env/apb_driver.sv(73) @ 2545000: uvm_test_top.env.agent.drvh [DRIVER] GOT READ DATA: addr=0x5d rdata=0x1
# UVM_ERROR verification/env/apb_scoreboard.sv(67) @ 2545000: uvm_test_top.env.scb [SCB] FAIL: addr=0x5d expected=0x712fcf4 actual=0x1
# UVM_INFO verification/env/apb_driver.sv(52) @ 2565000: uvm_test_top.env.agent.drvh [DRIVER] SEND WRITE: addr=0xcf wdata=0x6a254c8b
# UVM_INFO verification/env/apb_driver.sv(56) @ 2595000: uvm_test_top.env.agent.drvh [DRIVER] SEND READ : addr=0xcf
# UVM_INFO verification/env/apb_driver.sv(73) @ 2605000: uvm_test_top.env.agent.drvh [DRIVER] GOT READ DATA: addr=0xcf rdata=0x0
# UVM_ERROR verification/env/apb_scoreboard.sv(67) @ 2605000: uvm_test_top.env.scb [SCB] FAIL: addr=0xcf expected=0x6a254c8b actual=0x0
# UVM_INFO verification/env/apb_driver.sv(52) @ 2625000: uvm_test_top.env.agent.drvh [DRIVER] SEND WRITE: addr=0xb8 wdata=0xc0214c96
# UVM_INFO verification/env/apb_driver.sv(56) @ 2655000: uvm_test_top.env.agent.drvh [DRIVER] SEND READ : addr=0xb8
# UVM_INFO verification/env/apb_driver.sv(73) @ 2665000: uvm_test_top.env.agent.drvh [DRIVER] GOT READ DATA: addr=0xb8 rdata=0x1
# UVM_ERROR verification/env/apb_scoreboard.sv(67) @ 2665000: uvm_test_top.env.scb [SCB] FAIL: addr=0xb8 expected=0xc0214c96 actual=0x1
# UVM_INFO verification/env/apb_driver.sv(52) @ 2685000: uvm_test_top.env.agent.drvh [DRIVER] SEND WRITE: addr=0x54 wdata=0xdbadf77d
# UVM_INFO verification/env/apb_driver.sv(56) @ 2715000: uvm_test_top.env.agent.drvh [DRIVER] SEND READ : addr=0x54
# UVM_INFO verification/env/apb_driver.sv(73) @ 2725000: uvm_test_top.env.agent.drvh [DRIVER] GOT READ DATA: addr=0x54 rdata=0x0
# UVM_ERROR verification/env/apb_scoreboard.sv(67) @ 2725000: uvm_test_top.env.scb [SCB] FAIL: addr=0x54 expected=0xdbadf77d actual=0x0
# UVM_INFO verification/env/apb_driver.sv(52) @ 2745000: uvm_test_top.env.agent.drvh [DRIVER] SEND WRITE: addr=0xd1 wdata=0x4f38389d
# UVM_INFO verification/env/apb_driver.sv(56) @ 2775000: uvm_test_top.env.agent.drvh [DRIVER] SEND READ : addr=0xd1
# UVM_INFO verification/env/apb_driver.sv(73) @ 2785000: uvm_test_top.env.agent.drvh [DRIVER] GOT READ DATA: addr=0xd1 rdata=0x1
# UVM_ERROR verification/env/apb_scoreboard.sv(67) @ 2785000: uvm_test_top.env.scb [SCB] FAIL: addr=0xd1 expected=0x4f38389d actual=0x1
# UVM_INFO verification/env/apb_driver.sv(52) @ 2805000: uvm_test_top.env.agent.drvh [DRIVER] SEND WRITE: addr=0x21 wdata=0x9536136d
# UVM_INFO verification/env/apb_driver.sv(56) @ 2835000: uvm_test_top.env.agent.drvh [DRIVER] SEND READ : addr=0x21
# UVM_INFO verification/env/apb_driver.sv(73) @ 2845000: uvm_test_top.env.agent.drvh [DRIVER] GOT READ DATA: addr=0x21 rdata=0x1
# UVM_ERROR verification/env/apb_scoreboard.sv(67) @ 2845000: uvm_test_top.env.scb [SCB] FAIL: addr=0x21 expected=0x9536136d actual=0x1
# UVM_INFO verification/env/apb_driver.sv(52) @ 2865000: uvm_test_top.env.agent.drvh [DRIVER] SEND WRITE: addr=0xc4 wdata=0x7a5858ff
# UVM_INFO verification/env/apb_driver.sv(56) @ 2895000: uvm_test_top.env.agent.drvh [DRIVER] SEND READ : addr=0xc4
# UVM_INFO verification/env/apb_driver.sv(73) @ 2905000: uvm_test_top.env.agent.drvh [DRIVER] GOT READ DATA: addr=0xc4 rdata=0x1
# UVM_ERROR verification/env/apb_scoreboard.sv(67) @ 2905000: uvm_test_top.env.scb [SCB] FAIL: addr=0xc4 expected=0x7a5858ff actual=0x1
# UVM_INFO verification/env/apb_driver.sv(52) @ 2925000: uvm_test_top.env.agent.drvh [DRIVER] SEND WRITE: addr=0x61 wdata=0xa063b690
# UVM_INFO verification/env/apb_driver.sv(56) @ 2955000: uvm_test_top.env.agent.drvh [DRIVER] SEND READ : addr=0x61
# UVM_INFO verification/env/apb_driver.sv(73) @ 2965000: uvm_test_top.env.agent.drvh [DRIVER] GOT READ DATA: addr=0x61 rdata=0x1
# UVM_ERROR verification/env/apb_scoreboard.sv(67) @ 2965000: uvm_test_top.env.scb [SCB] FAIL: addr=0x61 expected=0xa063b690 actual=0x1
# UVM_INFO verification/env/apb_driver.sv(52) @ 2985000: uvm_test_top.env.agent.drvh [DRIVER] SEND WRITE: addr=0xc0 wdata=0xd73e5127
# UVM_INFO verification/env/apb_driver.sv(56) @ 3015000: uvm_test_top.env.agent.drvh [DRIVER] SEND READ : addr=0xc0
# UVM_INFO verification/env/apb_driver.sv(73) @ 3025000: uvm_test_top.env.agent.drvh [DRIVER] GOT READ DATA: addr=0xc0 rdata=0x0
# UVM_ERROR verification/env/apb_scoreboard.sv(67) @ 3025000: uvm_test_top.env.scb [SCB] FAIL: addr=0xc0 expected=0xd73e5127 actual=0x0
# UVM_ERROR verification/env/apb_scoreboard.sv(67) @ 3055000: uvm_test_top.env.scb [SCB] FAIL: addr=0xc0 expected=0xd73e5127 actual=0x0
# UVM_INFO verilog_src/uvm-1.1d/src/base/uvm_objection.svh(1267) @ 3135000: reporter [TEST_DONE] 'run' phase is ready to proceed to the 'extract' phase
# UVM_INFO verification/env/apb_coverage.sv(71) @ 3135000: uvm_test_top.env.cov [COVERAGE] Functional coverage = 67.00 %
# UVM_INFO verification/env/apb_scoreboard.sv(80) @ 3135000: uvm_test_top.env.scb [SCB] ------------ SCOREBOARD SUMMARY ------------
# UVM_INFO verification/env/apb_scoreboard.sv(81) @ 3135000: uvm_test_top.env.scb [SCB] Writes=50 Reads=51 Pass=0 Fail=51 Unchecked=0
# UVM_ERROR verification/env/apb_scoreboard.sv(86) @ 3135000: uvm_test_top.env.scb [SCB] *** TEST FAILED ***
# 
# --- UVM Report Summary ---
# 
# ** Report counts by severity
# UVM_INFO :  157
# UVM_WARNING :    0
# UVM_ERROR :   52
# UVM_FATAL :    0
# ** Report counts by id
# [COVERAGE]     1
# [DRIVER]   150
# [RNTST]     1
# [SCB]    54
# [TEST]     1
# [TEST_DONE]     1
# [UVMTOP]     1
# ** Note: $finish    : D:/programs/questasim download/win64/../verilog_src/uvm-1.1d/src/base/uvm_root.svh(430)
#    Time: 3135 ns  Iteration: 54  Instance: /tb_top
# Break in Task uvm_pkg/uvm_root::run_test at D:/programs/questasim download/win64/../verilog_src/uvm-1.1d/src/base/uvm_root.svh line 430
# Coverage Report Totals BY INSTANCES: Number of Instances 10
# 
#     Enabled Coverage              Bins      Hits    Misses    Weight  Coverage
#     ----------------              ----      ----    ------    ------  --------
#     Branches                        25        25         0         1   100.00%
#     Conditions                      10        10         0         1   100.00%
#     Covergroups                      1        na        na         1    67.00%
#         Coverpoints/Crosses          5        na        na         1        na
#             Covergroup Bins         16         9         7         1    56.25%
#     Expressions                      8         8         0         1   100.00%
#     FSM States                       3         3         0         1   100.00%
#     FSM Transitions                  5         4         1         1    80.00%
#     Statements                      32        32         0         1   100.00%
#     Toggles                        620       619         1         1    99.83%
# Total coverage (filtered view): 93.35%
# 
# 
quit -sim
# ** Error: Acs sdne.
# 
#        Unable to replace existing ini file (C:/Users/LENOVO/Desktop/Digital_Electronics/ABP_Protol/APB_Verification.mpf).  File can not be renamed.
# ** Error: Acs sdne.
# 
#        Unable to replace existing ini file (C:/Users/LENOVO/Desktop/Digital_Electronics/ABP_Protol/APB_Verification.mpf).  File can not be renamed.
# ** Error: Acs sdne.
# 
#        Unable to replace existing ini file (C:/Users/LENOVO/Desktop/Digital_Electronics/ABP_Protol/APB_Verification.mpf).  File can not be renamed.
# End time: 11:43:30 on Oct 06,2026, Elapsed time: 0:08:07
# Errors: 3, Warnings: 3
do runn_APB.do
# QuestaSim-64 vlog 2021.1 Compiler 2021.01 Jan 19 2021
# Start time: 11:43:32 on Oct 06,2026
# vlog -reportprogress 300 -sv -cover bcesft rtl/master.sv rtl/slave.sv rtl/apb_top.sv 
# -- Compiling module apb_master
# -- Compiling module apb_slave
# -- Compiling module apb_top
# 
# Top level modules:
# 	apb_top
# End time: 11:43:32 on Oct 06,2026, Elapsed time: 0:00:00
# Errors: 0, Warnings: 0
# QuestaSim-64 vlog 2021.1 Compiler 2021.01 Jan 19 2021
# Start time: 11:43:32 on Oct 06,2026
# vlog -reportprogress 300 -sv "+incdir+." rtl/apb_interface.sv 
# -- Compiling interface apb_interface
# 
# Top level modules:
# 	--none--
# End time: 11:43:32 on Oct 06,2026, Elapsed time: 0:00:00
# Errors: 0, Warnings: 0
# QuestaSim-64 vlog 2021.1 Compiler 2021.01 Jan 19 2021
# Start time: 11:43:32 on Oct 06,2026
# vlog -reportprogress 300 -sv "+incdir+." verification/env/apb_env_pkg.sv 
# -- Compiling package apb_env_pkg
# -- Importing package mtiUvm.uvm_pkg (uvm-1.1d Built-in)
# ** Note: (vlog-2286) verification/env/apb_env_pkg.sv(7): Using implicit +incdir+D:/programs/questasim download/uvm-1.1d/../verilog_src/uvm-1.1d/src from import uvm_pkg
# 
# Top level modules:
# 	--none--
# End time: 11:43:32 on Oct 06,2026, Elapsed time: 0:00:00
# Errors: 0, Warnings: 0
# QuestaSim-64 vlog 2021.1 Compiler 2021.01 Jan 19 2021
# Start time: 11:43:32 on Oct 06,2026
# vlog -reportprogress 300 -sv "+incdir+." verification/sequence/apb_sequence_pkg.sv 
# -- Compiling package apb_seq_pkg
# -- Importing package mtiUvm.uvm_pkg (uvm-1.1d Built-in)
# ** Note: (vlog-2286) verification/sequence/apb_sequence_pkg.sv(7): Using implicit +incdir+D:/programs/questasim download/uvm-1.1d/../verilog_src/uvm-1.1d/src from import uvm_pkg
# -- Importing package apb_env_pkg
# 
# Top level modules:
# 	--none--
# End time: 11:43:33 on Oct 06,2026, Elapsed time: 0:00:01
# Errors: 0, Warnings: 0
# QuestaSim-64 vlog 2021.1 Compiler 2021.01 Jan 19 2021
# Start time: 11:43:33 on Oct 06,2026
# vlog -reportprogress 300 -sv "+incdir+." verification/test/apb_test_pkg.sv 
# -- Compiling package apb_test_pkg
# -- Importing package mtiUvm.uvm_pkg (uvm-1.1d Built-in)
# ** Note: (vlog-2286) verification/test/apb_test_pkg.sv(7): Using implicit +incdir+D:/programs/questasim download/uvm-1.1d/../verilog_src/uvm-1.1d/src from import uvm_pkg
# -- Importing package apb_env_pkg
# -- Importing package apb_seq_pkg
# 
# Top level modules:
# 	--none--
# End time: 11:43:33 on Oct 06,2026, Elapsed time: 0:00:00
# Errors: 0, Warnings: 0
# QuestaSim-64 vlog 2021.1 Compiler 2021.01 Jan 19 2021
# Start time: 11:43:33 on Oct 06,2026
# vlog -reportprogress 300 -sv "+incdir+." verification/top/apb_tb.sv 
# -- Compiling module tb_top
# -- Importing package mtiUvm.uvm_pkg (uvm-1.1d Built-in)
# ** Note: (vlog-2286) verification/top/apb_tb.sv(6): Using implicit +incdir+D:/programs/questasim download/uvm-1.1d/../verilog_src/uvm-1.1d/src from import uvm_pkg
# -- Importing package apb_env_pkg
# -- Importing package apb_test_pkg
# -- Importing package apb_seq_pkg
# 
# Top level modules:
# 	tb_top
# End time: 11:43:33 on Oct 06,2026, Elapsed time: 0:00:00
# Errors: 0, Warnings: 0
# vsim -c -coverage -onfinish stop work.tb_top "+UVM_TESTNAME=apb_rd_wr_test" "+UVM_VERBOSITY=UVM_LOW" 
# Start time: 11:43:33 on Oct 06,2026
# ** Note: (vsim-3812) Design is being optimized...
# ** Note: (vopt-143) Recognized 1 FSM in module "apb_master(fast)".
# Loading sv_std.std
# Loading work.apb_interface(fast)
# Loading mtiUvm.uvm_pkg(fast)
# Loading work.apb_env_pkg(fast)
# Loading work.apb_seq_pkg(fast)
# Loading work.apb_test_pkg(fast)
# Loading mtiUvm.questa_uvm_pkg(fast)
# Loading work.tb_top(fast)
# Loading work.apb_top(fast)
# Loading D:/programs/questasim download/uvm-1.1d\win64\uvm_dpi.dll
# ----------------------------------------------------------------
# UVM-1.1d
# (C) 2007-2013 Mentor Graphics Corporation
# (C) 2007-2013 Cadence Design Systems, Inc.
# (C) 2006-2013 Synopsys, Inc.
# (C) 2011-2013 Cypress Semiconductor Corp.
# ----------------------------------------------------------------
# 
#   ***********       IMPORTANT RELEASE NOTES         ************
# 
#   You are using a version of the UVM library that has been compiled
#   with `UVM_NO_DEPRECATED undefined.
#   See http://www.eda.org/svdb/view.php?id=3313 for more details.
# 
#   You are using a version of the UVM library that has been compiled
#   with `UVM_OBJECT_MUST_HAVE_CONSTRUCTOR undefined.
#   See http://www.eda.org/svdb/view.php?id=3770 for more details.
# 
#       (Specify +UVM_NO_RELNOTES to turn off this notice)
# 
# UVM_INFO @ 0: reporter [RNTST] Running test apb_rd_wr_test...
# ** Warning: (vsim-8474) A higher value '4294967295' is found in bin 'all_ones' of Coverpoint 'cp_rdata'. It is invalid and will be ignored.
#    Time: 0 ps  Iteration: 7  Process: /uvm_pkg::uvm_phase::m_run_phases/#FORK#1847_4f63fe8c File: verification/env/apb_coverage.sv Line: 38
# ** Warning: (vsim-8549) After dropping the illegal, ignore or invalid values, the values list associated with scalar bin 'all_ones' in Coverpoint 'cp_rdata' of Covergroup instance '\/apb_env_pkg::apb_coverage::apb_cg ' has converged to empty list. The bin will be taken out of coverage calculation.
#    Time: 0 ps  Iteration: 7  Region: /uvm_pkg::uvm_phase::m_run_phases
# UVM_INFO @ 0: reporter [UVMTOP] UVM testbench topology:
# --------------------------------------------------------------
# Name                       Type                    Size  Value
# --------------------------------------------------------------
# uvm_test_top               apb_rd_wr_test          -     @471 
#   env                      apb_env                 -     @478 
#     agent                  apb_agent               -     @485 
#       drvh                 apb_driver              -     @508 
#         rsp_port           uvm_analysis_port       -     @523 
#         seq_item_port      uvm_seq_item_pull_port  -     @515 
#       monh                 apb_monitor             -     @531 
#         mon_ap             uvm_analysis_port       -     @648 
#       sqrh                 apb_sequencer           -     @538 
#         rsp_export         uvm_analysis_export     -     @545 
#         seq_item_export    uvm_seq_item_pull_imp   -     @639 
#         arbitration_queue  array                   0     -    
#         lock_queue         array                   0     -    
#         num_last_reqs      integral                32    'd1  
#         num_last_rsps      integral                32    'd1  
#     cov                    apb_coverage            -     @499 
#       cov_ap               uvm_analysis_imp        -     @662 
#     scb                    apb_scoreboard          -     @492 
#       sb_imp               uvm_analysis_imp        -     @670 
# --------------------------------------------------------------
# 
# UVM_INFO verification/test/apb_rd_wr_test.sv(17) @ 0: uvm_test_top [TEST] Starting apb_rd_wr_seq
# UVM_INFO verification/env/apb_driver.sv(51) @ 15000: uvm_test_top.env.agent.drvh [DRIVER] SEND WRITE: addr=0xaa wdata=0x4b55819e
# UVM_INFO verification/env/apb_driver.sv(55) @ 75000: uvm_test_top.env.agent.drvh [DRIVER] SEND READ : addr=0xaa
# UVM_INFO verification/env/apb_driver.sv(75) @ 125000: uvm_test_top.env.agent.drvh [DRIVER] GOT READ DATA: addr=0xaa rdata=0x0
# UVM_ERROR verification/env/apb_scoreboard.sv(68) @ 125000: uvm_test_top.env.scb [SCB] FAIL: addr=0xaa expected=0x4b55819e actual=0x0
# UVM_INFO verification/env/apb_driver.sv(51) @ 135000: uvm_test_top.env.agent.drvh [DRIVER] SEND WRITE: addr=0xcf wdata=0xf2859a43
# UVM_INFO verification/env/apb_driver.sv(55) @ 195000: uvm_test_top.env.agent.drvh [DRIVER] SEND READ : addr=0xcf
# UVM_INFO verification/env/apb_driver.sv(75) @ 245000: uvm_test_top.env.agent.drvh [DRIVER] GOT READ DATA: addr=0xcf rdata=0x1
# UVM_ERROR verification/env/apb_scoreboard.sv(68) @ 245000: uvm_test_top.env.scb [SCB] FAIL: addr=0xcf expected=0xf2859a43 actual=0x1
# UVM_INFO verification/env/apb_driver.sv(51) @ 255000: uvm_test_top.env.agent.drvh [DRIVER] SEND WRITE: addr=0xcd wdata=0x8be7fa8f
# UVM_INFO verification/env/apb_driver.sv(55) @ 315000: uvm_test_top.env.agent.drvh [DRIVER] SEND READ : addr=0xcd
# UVM_INFO verification/env/apb_driver.sv(75) @ 365000: uvm_test_top.env.agent.drvh [DRIVER] GOT READ DATA: addr=0xcd rdata=0x1
# UVM_ERROR verification/env/apb_scoreboard.sv(68) @ 365000: uvm_test_top.env.scb [SCB] FAIL: addr=0xcd expected=0x8be7fa8f actual=0x1
# UVM_INFO verification/env/apb_driver.sv(51) @ 375000: uvm_test_top.env.agent.drvh [DRIVER] SEND WRITE: addr=0xb7 wdata=0xb0572db0
# UVM_INFO verification/env/apb_driver.sv(55) @ 435000: uvm_test_top.env.agent.drvh [DRIVER] SEND READ : addr=0xb7
# UVM_INFO verification/env/apb_driver.sv(75) @ 485000: uvm_test_top.env.agent.drvh [DRIVER] GOT READ DATA: addr=0xb7 rdata=0x0
# UVM_ERROR verification/env/apb_scoreboard.sv(68) @ 485000: uvm_test_top.env.scb [SCB] FAIL: addr=0xb7 expected=0xb0572db0 actual=0x0
# UVM_INFO verification/env/apb_driver.sv(51) @ 495000: uvm_test_top.env.agent.drvh [DRIVER] SEND WRITE: addr=0x32 wdata=0x63db05b2
# UVM_INFO verification/env/apb_driver.sv(55) @ 555000: uvm_test_top.env.agent.drvh [DRIVER] SEND READ : addr=0x32
# UVM_INFO verification/env/apb_driver.sv(75) @ 605000: uvm_test_top.env.agent.drvh [DRIVER] GOT READ DATA: addr=0x32 rdata=0x0
# UVM_ERROR verification/env/apb_scoreboard.sv(68) @ 605000: uvm_test_top.env.scb [SCB] FAIL: addr=0x32 expected=0x63db05b2 actual=0x0
# UVM_INFO verification/env/apb_driver.sv(51) @ 615000: uvm_test_top.env.agent.drvh [DRIVER] SEND WRITE: addr=0xdf wdata=0xb20d05fb
# UVM_INFO verification/env/apb_driver.sv(55) @ 675000: uvm_test_top.env.agent.drvh [DRIVER] SEND READ : addr=0xdf
# UVM_INFO verification/env/apb_driver.sv(75) @ 725000: uvm_test_top.env.agent.drvh [DRIVER] GOT READ DATA: addr=0xdf rdata=0x1
# UVM_ERROR verification/env/apb_scoreboard.sv(68) @ 725000: uvm_test_top.env.scb [SCB] FAIL: addr=0xdf expected=0xb20d05fb actual=0x1
# UVM_INFO verification/env/apb_driver.sv(51) @ 735000: uvm_test_top.env.agent.drvh [DRIVER] SEND WRITE: addr=0x7b wdata=0xb00e7202
# UVM_INFO verification/env/apb_driver.sv(55) @ 795000: uvm_test_top.env.agent.drvh [DRIVER] SEND READ : addr=0x7b
# UVM_INFO verification/env/apb_driver.sv(75) @ 845000: uvm_test_top.env.agent.drvh [DRIVER] GOT READ DATA: addr=0x7b rdata=0x0
# UVM_ERROR verification/env/apb_scoreboard.sv(68) @ 845000: uvm_test_top.env.scb [SCB] FAIL: addr=0x7b expected=0xb00e7202 actual=0x0
# UVM_INFO verification/env/apb_driver.sv(51) @ 855000: uvm_test_top.env.agent.drvh [DRIVER] SEND WRITE: addr=0xd0 wdata=0xd031f55d
# UVM_INFO verification/env/apb_driver.sv(55) @ 915000: uvm_test_top.env.agent.drvh [DRIVER] SEND READ : addr=0xd0
# UVM_INFO verification/env/apb_driver.sv(75) @ 965000: uvm_test_top.env.agent.drvh [DRIVER] GOT READ DATA: addr=0xd0 rdata=0x1
# UVM_ERROR verification/env/apb_scoreboard.sv(68) @ 965000: uvm_test_top.env.scb [SCB] FAIL: addr=0xd0 expected=0xd031f55d actual=0x1
# UVM_INFO verification/env/apb_driver.sv(51) @ 975000: uvm_test_top.env.agent.drvh [DRIVER] SEND WRITE: addr=0x4d wdata=0x762f34ca
# UVM_INFO verification/env/apb_driver.sv(55) @ 1035000: uvm_test_top.env.agent.drvh [DRIVER] SEND READ : addr=0x4d
# UVM_INFO verification/env/apb_driver.sv(75) @ 1085000: uvm_test_top.env.agent.drvh [DRIVER] GOT READ DATA: addr=0x4d rdata=0x0
# UVM_ERROR verification/env/apb_scoreboard.sv(68) @ 1085000: uvm_test_top.env.scb [SCB] FAIL: addr=0x4d expected=0x762f34ca actual=0x0
# UVM_INFO verification/env/apb_driver.sv(51) @ 1095000: uvm_test_top.env.agent.drvh [DRIVER] SEND WRITE: addr=0x1c wdata=0x936b3724
# UVM_INFO verification/env/apb_driver.sv(55) @ 1155000: uvm_test_top.env.agent.drvh [DRIVER] SEND READ : addr=0x1c
# UVM_INFO verification/env/apb_driver.sv(75) @ 1205000: uvm_test_top.env.agent.drvh [DRIVER] GOT READ DATA: addr=0x1c rdata=0x0
# UVM_ERROR verification/env/apb_scoreboard.sv(68) @ 1205000: uvm_test_top.env.scb [SCB] FAIL: addr=0x1c expected=0x936b3724 actual=0x0
# UVM_INFO verification/env/apb_driver.sv(51) @ 1215000: uvm_test_top.env.agent.drvh [DRIVER] SEND WRITE: addr=0xb3 wdata=0x31c7e84f
# UVM_INFO verification/env/apb_driver.sv(55) @ 1275000: uvm_test_top.env.agent.drvh [DRIVER] SEND READ : addr=0xb3
# UVM_INFO verification/env/apb_driver.sv(75) @ 1325000: uvm_test_top.env.agent.drvh [DRIVER] GOT READ DATA: addr=0xb3 rdata=0x1
# UVM_ERROR verification/env/apb_scoreboard.sv(68) @ 1325000: uvm_test_top.env.scb [SCB] FAIL: addr=0xb3 expected=0x31c7e84f actual=0x1
# UVM_INFO verification/env/apb_driver.sv(51) @ 1335000: uvm_test_top.env.agent.drvh [DRIVER] SEND WRITE: addr=0x56 wdata=0xe8f822df
# UVM_INFO verification/env/apb_driver.sv(55) @ 1395000: uvm_test_top.env.agent.drvh [DRIVER] SEND READ : addr=0x56
# UVM_INFO verification/env/apb_driver.sv(75) @ 1445000: uvm_test_top.env.agent.drvh [DRIVER] GOT READ DATA: addr=0x56 rdata=0x1
# UVM_ERROR verification/env/apb_scoreboard.sv(68) @ 1445000: uvm_test_top.env.scb [SCB] FAIL: addr=0x56 expected=0xe8f822df actual=0x1
# UVM_INFO verification/env/apb_driver.sv(51) @ 1455000: uvm_test_top.env.agent.drvh [DRIVER] SEND WRITE: addr=0xd6 wdata=0xfa17baeb
# UVM_INFO verification/env/apb_driver.sv(55) @ 1515000: uvm_test_top.env.agent.drvh [DRIVER] SEND READ : addr=0xd6
# UVM_INFO verification/env/apb_driver.sv(75) @ 1565000: uvm_test_top.env.agent.drvh [DRIVER] GOT READ DATA: addr=0xd6 rdata=0x1
# UVM_ERROR verification/env/apb_scoreboard.sv(68) @ 1565000: uvm_test_top.env.scb [SCB] FAIL: addr=0xd6 expected=0xfa17baeb actual=0x1
# UVM_INFO verification/env/apb_driver.sv(51) @ 1575000: uvm_test_top.env.agent.drvh [DRIVER] SEND WRITE: addr=0x8 wdata=0xaf671a07
# UVM_INFO verification/env/apb_driver.sv(55) @ 1635000: uvm_test_top.env.agent.drvh [DRIVER] SEND READ : addr=0x8
# UVM_INFO verification/env/apb_driver.sv(75) @ 1685000: uvm_test_top.env.agent.drvh [DRIVER] GOT READ DATA: addr=0x8 rdata=0x1
# UVM_ERROR verification/env/apb_scoreboard.sv(68) @ 1685000: uvm_test_top.env.scb [SCB] FAIL: addr=0x8 expected=0xaf671a07 actual=0x1
# UVM_INFO verification/env/apb_driver.sv(51) @ 1695000: uvm_test_top.env.agent.drvh [DRIVER] SEND WRITE: addr=0x84 wdata=0x11d43948
# UVM_INFO verification/env/apb_driver.sv(55) @ 1755000: uvm_test_top.env.agent.drvh [DRIVER] SEND READ : addr=0x84
# UVM_INFO verification/env/apb_driver.sv(75) @ 1805000: uvm_test_top.env.agent.drvh [DRIVER] GOT READ DATA: addr=0x84 rdata=0x0
# UVM_ERROR verification/env/apb_scoreboard.sv(68) @ 1805000: uvm_test_top.env.scb [SCB] FAIL: addr=0x84 expected=0x11d43948 actual=0x0
# UVM_INFO verification/env/apb_driver.sv(51) @ 1815000: uvm_test_top.env.agent.drvh [DRIVER] SEND WRITE: addr=0x5 wdata=0x4478fddb
# UVM_INFO verification/env/apb_driver.sv(55) @ 1875000: uvm_test_top.env.agent.drvh [DRIVER] SEND READ : addr=0x5
# UVM_INFO verification/env/apb_driver.sv(75) @ 1925000: uvm_test_top.env.agent.drvh [DRIVER] GOT READ DATA: addr=0x5 rdata=0x1
# UVM_ERROR verification/env/apb_scoreboard.sv(68) @ 1925000: uvm_test_top.env.scb [SCB] FAIL: addr=0x5 expected=0x4478fddb actual=0x1
# UVM_INFO verification/env/apb_driver.sv(51) @ 1935000: uvm_test_top.env.agent.drvh [DRIVER] SEND WRITE: addr=0x14 wdata=0x34eaff31
# UVM_INFO verification/env/apb_driver.sv(55) @ 1995000: uvm_test_top.env.agent.drvh [DRIVER] SEND READ : addr=0x14
# UVM_INFO verification/env/apb_driver.sv(75) @ 2045000: uvm_test_top.env.agent.drvh [DRIVER] GOT READ DATA: addr=0x14 rdata=0x1
# UVM_ERROR verification/env/apb_scoreboard.sv(68) @ 2045000: uvm_test_top.env.scb [SCB] FAIL: addr=0x14 expected=0x34eaff31 actual=0x1
# UVM_INFO verification/env/apb_driver.sv(51) @ 2055000: uvm_test_top.env.agent.drvh [DRIVER] SEND WRITE: addr=0xc9 wdata=0x4c9f2dea
# UVM_INFO verification/env/apb_driver.sv(55) @ 2115000: uvm_test_top.env.agent.drvh [DRIVER] SEND READ : addr=0xc9
# UVM_INFO verification/env/apb_driver.sv(75) @ 2165000: uvm_test_top.env.agent.drvh [DRIVER] GOT READ DATA: addr=0xc9 rdata=0x0
# UVM_ERROR verification/env/apb_scoreboard.sv(68) @ 2165000: uvm_test_top.env.scb [SCB] FAIL: addr=0xc9 expected=0x4c9f2dea actual=0x0
# UVM_INFO verification/env/apb_driver.sv(51) @ 2175000: uvm_test_top.env.agent.drvh [DRIVER] SEND WRITE: addr=0xfc wdata=0x7d86fb26
# UVM_INFO verification/env/apb_driver.sv(55) @ 2235000: uvm_test_top.env.agent.drvh [DRIVER] SEND READ : addr=0xfc
# UVM_INFO verification/env/apb_driver.sv(75) @ 2285000: uvm_test_top.env.agent.drvh [DRIVER] GOT READ DATA: addr=0xfc rdata=0x0
# UVM_ERROR verification/env/apb_scoreboard.sv(68) @ 2285000: uvm_test_top.env.scb [SCB] FAIL: addr=0xfc expected=0x7d86fb26 actual=0x0
# UVM_INFO verification/env/apb_driver.sv(51) @ 2295000: uvm_test_top.env.agent.drvh [DRIVER] SEND WRITE: addr=0xa0 wdata=0x69564b33
# UVM_INFO verification/env/apb_driver.sv(55) @ 2355000: uvm_test_top.env.agent.drvh [DRIVER] SEND READ : addr=0xa0
# UVM_INFO verification/env/apb_driver.sv(75) @ 2405000: uvm_test_top.env.agent.drvh [DRIVER] GOT READ DATA: addr=0xa0 rdata=0x1
# UVM_ERROR verification/env/apb_scoreboard.sv(68) @ 2405000: uvm_test_top.env.scb [SCB] FAIL: addr=0xa0 expected=0x69564b33 actual=0x1
# UVM_INFO verification/env/apb_driver.sv(51) @ 2415000: uvm_test_top.env.agent.drvh [DRIVER] SEND WRITE: addr=0xee wdata=0x3e6ed544
# UVM_INFO verification/env/apb_driver.sv(55) @ 2475000: uvm_test_top.env.agent.drvh [DRIVER] SEND READ : addr=0xee
# UVM_INFO verification/env/apb_driver.sv(75) @ 2525000: uvm_test_top.env.agent.drvh [DRIVER] GOT READ DATA: addr=0xee rdata=0x0
# UVM_ERROR verification/env/apb_scoreboard.sv(68) @ 2525000: uvm_test_top.env.scb [SCB] FAIL: addr=0xee expected=0x3e6ed544 actual=0x0
# UVM_INFO verification/env/apb_driver.sv(51) @ 2535000: uvm_test_top.env.agent.drvh [DRIVER] SEND WRITE: addr=0xdc wdata=0x1289e6a0
# UVM_INFO verification/env/apb_driver.sv(55) @ 2595000: uvm_test_top.env.agent.drvh [DRIVER] SEND READ : addr=0xdc
# UVM_INFO verification/env/apb_driver.sv(75) @ 2645000: uvm_test_top.env.agent.drvh [DRIVER] GOT READ DATA: addr=0xdc rdata=0x0
# UVM_ERROR verification/env/apb_scoreboard.sv(68) @ 2645000: uvm_test_top.env.scb [SCB] FAIL: addr=0xdc expected=0x1289e6a0 actual=0x0
# UVM_INFO verification/env/apb_driver.sv(51) @ 2655000: uvm_test_top.env.agent.drvh [DRIVER] SEND WRITE: addr=0xa0 wdata=0xf5d4de18
# UVM_INFO verification/env/apb_driver.sv(55) @ 2715000: uvm_test_top.env.agent.drvh [DRIVER] SEND READ : addr=0xa0
# UVM_INFO verification/env/apb_driver.sv(75) @ 2765000: uvm_test_top.env.agent.drvh [DRIVER] GOT READ DATA: addr=0xa0 rdata=0x0
# UVM_ERROR verification/env/apb_scoreboard.sv(68) @ 2765000: uvm_test_top.env.scb [SCB] FAIL: addr=0xa0 expected=0xf5d4de18 actual=0x0
# UVM_INFO verification/env/apb_driver.sv(51) @ 2775000: uvm_test_top.env.agent.drvh [DRIVER] SEND WRITE: addr=0xba wdata=0xd5e2ea68
# UVM_INFO verification/env/apb_driver.sv(55) @ 2835000: uvm_test_top.env.agent.drvh [DRIVER] SEND READ : addr=0xba
# UVM_INFO verification/env/apb_driver.sv(75) @ 2885000: uvm_test_top.env.agent.drvh [DRIVER] GOT READ DATA: addr=0xba rdata=0x0
# UVM_ERROR verification/env/apb_scoreboard.sv(68) @ 2885000: uvm_test_top.env.scb [SCB] FAIL: addr=0xba expected=0xd5e2ea68 actual=0x0
# UVM_INFO verification/env/apb_driver.sv(51) @ 2895000: uvm_test_top.env.agent.drvh [DRIVER] SEND WRITE: addr=0xf8 wdata=0x3ce9bcb
# UVM_INFO verification/env/apb_driver.sv(55) @ 2955000: uvm_test_top.env.agent.drvh [DRIVER] SEND READ : addr=0xf8
# UVM_INFO verification/env/apb_driver.sv(75) @ 3005000: uvm_test_top.env.agent.drvh [DRIVER] GOT READ DATA: addr=0xf8 rdata=0x1
# UVM_ERROR verification/env/apb_scoreboard.sv(68) @ 3005000: uvm_test_top.env.scb [SCB] FAIL: addr=0xf8 expected=0x3ce9bcb actual=0x1
# UVM_INFO verification/env/apb_driver.sv(51) @ 3015000: uvm_test_top.env.agent.drvh [DRIVER] SEND WRITE: addr=0xcf wdata=0xdd70111
# UVM_INFO verification/env/apb_driver.sv(55) @ 3075000: uvm_test_top.env.agent.drvh [DRIVER] SEND READ : addr=0xcf
# UVM_INFO verification/env/apb_driver.sv(75) @ 3125000: uvm_test_top.env.agent.drvh [DRIVER] GOT READ DATA: addr=0xcf rdata=0x1
# UVM_ERROR verification/env/apb_scoreboard.sv(68) @ 3125000: uvm_test_top.env.scb [SCB] FAIL: addr=0xcf expected=0xdd70111 actual=0x1
# UVM_INFO verification/env/apb_driver.sv(51) @ 3135000: uvm_test_top.env.agent.drvh [DRIVER] SEND WRITE: addr=0x17 wdata=0x6eab74da
# UVM_INFO verification/env/apb_driver.sv(55) @ 3195000: uvm_test_top.env.agent.drvh [DRIVER] SEND READ : addr=0x17
# UVM_INFO verification/env/apb_driver.sv(75) @ 3245000: uvm_test_top.env.agent.drvh [DRIVER] GOT READ DATA: addr=0x17 rdata=0x0
# UVM_ERROR verification/env/apb_scoreboard.sv(68) @ 3245000: uvm_test_top.env.scb [SCB] FAIL: addr=0x17 expected=0x6eab74da actual=0x0
# UVM_INFO verification/env/apb_driver.sv(51) @ 3255000: uvm_test_top.env.agent.drvh [DRIVER] SEND WRITE: addr=0xe wdata=0x1bb6c45c
# UVM_INFO verification/env/apb_driver.sv(55) @ 3315000: uvm_test_top.env.agent.drvh [DRIVER] SEND READ : addr=0xe
# UVM_INFO verification/env/apb_driver.sv(75) @ 3365000: uvm_test_top.env.agent.drvh [DRIVER] GOT READ DATA: addr=0xe rdata=0x0
# UVM_ERROR verification/env/apb_scoreboard.sv(68) @ 3365000: uvm_test_top.env.scb [SCB] FAIL: addr=0xe expected=0x1bb6c45c actual=0x0
# UVM_INFO verification/env/apb_driver.sv(51) @ 3375000: uvm_test_top.env.agent.drvh [DRIVER] SEND WRITE: addr=0x9f wdata=0x467ec8b0
# UVM_INFO verification/env/apb_driver.sv(55) @ 3435000: uvm_test_top.env.agent.drvh [DRIVER] SEND READ : addr=0x9f
# UVM_INFO verification/env/apb_driver.sv(75) @ 3485000: uvm_test_top.env.agent.drvh [DRIVER] GOT READ DATA: addr=0x9f rdata=0x0
# UVM_ERROR verification/env/apb_scoreboard.sv(68) @ 3485000: uvm_test_top.env.scb [SCB] FAIL: addr=0x9f expected=0x467ec8b0 actual=0x0
# UVM_INFO verification/env/apb_driver.sv(51) @ 3495000: uvm_test_top.env.agent.drvh [DRIVER] SEND WRITE: addr=0x41 wdata=0xefcc8c00
# UVM_INFO verification/env/apb_driver.sv(55) @ 3555000: uvm_test_top.env.agent.drvh [DRIVER] SEND READ : addr=0x41
# UVM_INFO verification/env/apb_driver.sv(75) @ 3605000: uvm_test_top.env.agent.drvh [DRIVER] GOT READ DATA: addr=0x41 rdata=0x0
# UVM_ERROR verification/env/apb_scoreboard.sv(68) @ 3605000: uvm_test_top.env.scb [SCB] FAIL: addr=0x41 expected=0xefcc8c00 actual=0x0
# UVM_INFO verification/env/apb_driver.sv(51) @ 3615000: uvm_test_top.env.agent.drvh [DRIVER] SEND WRITE: addr=0x77 wdata=0xb465bf11
# UVM_INFO verification/env/apb_driver.sv(55) @ 3675000: uvm_test_top.env.agent.drvh [DRIVER] SEND READ : addr=0x77
# UVM_INFO verification/env/apb_driver.sv(75) @ 3725000: uvm_test_top.env.agent.drvh [DRIVER] GOT READ DATA: addr=0x77 rdata=0x1
# UVM_ERROR verification/env/apb_scoreboard.sv(68) @ 3725000: uvm_test_top.env.scb [SCB] FAIL: addr=0x77 expected=0xb465bf11 actual=0x1
# UVM_INFO verification/env/apb_driver.sv(51) @ 3735000: uvm_test_top.env.agent.drvh [DRIVER] SEND WRITE: addr=0x7e wdata=0xbc4090e2
# UVM_INFO verification/env/apb_driver.sv(55) @ 3795000: uvm_test_top.env.agent.drvh [DRIVER] SEND READ : addr=0x7e
# UVM_INFO verification/env/apb_driver.sv(75) @ 3845000: uvm_test_top.env.agent.drvh [DRIVER] GOT READ DATA: addr=0x7e rdata=0x0
# UVM_ERROR verification/env/apb_scoreboard.sv(68) @ 3845000: uvm_test_top.env.scb [SCB] FAIL: addr=0x7e expected=0xbc4090e2 actual=0x0
# UVM_INFO verification/env/apb_driver.sv(51) @ 3855000: uvm_test_top.env.agent.drvh [DRIVER] SEND WRITE: addr=0x65 wdata=0xdd124aa2
# UVM_INFO verification/env/apb_driver.sv(55) @ 3915000: uvm_test_top.env.agent.drvh [DRIVER] SEND READ : addr=0x65
# UVM_INFO verification/env/apb_driver.sv(75) @ 3965000: uvm_test_top.env.agent.drvh [DRIVER] GOT READ DATA: addr=0x65 rdata=0x0
# UVM_ERROR verification/env/apb_scoreboard.sv(68) @ 3965000: uvm_test_top.env.scb [SCB] FAIL: addr=0x65 expected=0xdd124aa2 actual=0x0
# UVM_INFO verification/env/apb_driver.sv(51) @ 3975000: uvm_test_top.env.agent.drvh [DRIVER] SEND WRITE: addr=0xe2 wdata=0xe1f5c3e
# UVM_INFO verification/env/apb_driver.sv(55) @ 4035000: uvm_test_top.env.agent.drvh [DRIVER] SEND READ : addr=0xe2
# UVM_INFO verification/env/apb_driver.sv(75) @ 4085000: uvm_test_top.env.agent.drvh [DRIVER] GOT READ DATA: addr=0xe2 rdata=0x0
# UVM_ERROR verification/env/apb_scoreboard.sv(68) @ 4085000: uvm_test_top.env.scb [SCB] FAIL: addr=0xe2 expected=0xe1f5c3e actual=0x0
# UVM_INFO verification/env/apb_driver.sv(51) @ 4095000: uvm_test_top.env.agent.drvh [DRIVER] SEND WRITE: addr=0xe8 wdata=0xf46874a3
# UVM_INFO verification/env/apb_driver.sv(55) @ 4155000: uvm_test_top.env.agent.drvh [DRIVER] SEND READ : addr=0xe8
# UVM_INFO verification/env/apb_driver.sv(75) @ 4205000: uvm_test_top.env.agent.drvh [DRIVER] GOT READ DATA: addr=0xe8 rdata=0x1
# UVM_ERROR verification/env/apb_scoreboard.sv(68) @ 4205000: uvm_test_top.env.scb [SCB] FAIL: addr=0xe8 expected=0xf46874a3 actual=0x1
# UVM_INFO verification/env/apb_driver.sv(51) @ 4215000: uvm_test_top.env.agent.drvh [DRIVER] SEND WRITE: addr=0x7f wdata=0x81a946db
# UVM_INFO verification/env/apb_driver.sv(55) @ 4275000: uvm_test_top.env.agent.drvh [DRIVER] SEND READ : addr=0x7f
# UVM_INFO verification/env/apb_driver.sv(75) @ 4325000: uvm_test_top.env.agent.drvh [DRIVER] GOT READ DATA: addr=0x7f rdata=0x1
# UVM_ERROR verification/env/apb_scoreboard.sv(68) @ 4325000: uvm_test_top.env.scb [SCB] FAIL: addr=0x7f expected=0x81a946db actual=0x1
# UVM_INFO verification/env/apb_driver.sv(51) @ 4335000: uvm_test_top.env.agent.drvh [DRIVER] SEND WRITE: addr=0x7a wdata=0xcfb10ddb
# UVM_INFO verification/env/apb_driver.sv(55) @ 4395000: uvm_test_top.env.agent.drvh [DRIVER] SEND READ : addr=0x7a
# UVM_INFO verification/env/apb_driver.sv(75) @ 4445000: uvm_test_top.env.agent.drvh [DRIVER] GOT READ DATA: addr=0x7a rdata=0x1
# UVM_ERROR verification/env/apb_scoreboard.sv(68) @ 4445000: uvm_test_top.env.scb [SCB] FAIL: addr=0x7a expected=0xcfb10ddb actual=0x1
# UVM_INFO verification/env/apb_driver.sv(51) @ 4455000: uvm_test_top.env.agent.drvh [DRIVER] SEND WRITE: addr=0xd1 wdata=0x1132fea7
# UVM_INFO verification/env/apb_driver.sv(55) @ 4515000: uvm_test_top.env.agent.drvh [DRIVER] SEND READ : addr=0xd1
# UVM_INFO verification/env/apb_driver.sv(75) @ 4565000: uvm_test_top.env.agent.drvh [DRIVER] GOT READ DATA: addr=0xd1 rdata=0x1
# UVM_ERROR verification/env/apb_scoreboard.sv(68) @ 4565000: uvm_test_top.env.scb [SCB] FAIL: addr=0xd1 expected=0x1132fea7 actual=0x1
# UVM_INFO verification/env/apb_driver.sv(51) @ 4575000: uvm_test_top.env.agent.drvh [DRIVER] SEND WRITE: addr=0xcc wdata=0x3856632c
# UVM_INFO verification/env/apb_driver.sv(55) @ 4635000: uvm_test_top.env.agent.drvh [DRIVER] SEND READ : addr=0xcc
# UVM_INFO verification/env/apb_driver.sv(75) @ 4685000: uvm_test_top.env.agent.drvh [DRIVER] GOT READ DATA: addr=0xcc rdata=0x0
# UVM_ERROR verification/env/apb_scoreboard.sv(68) @ 4685000: uvm_test_top.env.scb [SCB] FAIL: addr=0xcc expected=0x3856632c actual=0x0
# UVM_INFO verification/env/apb_driver.sv(51) @ 4695000: uvm_test_top.env.agent.drvh [DRIVER] SEND WRITE: addr=0x87 wdata=0x23a1f581
# UVM_INFO verification/env/apb_driver.sv(55) @ 4755000: uvm_test_top.env.agent.drvh [DRIVER] SEND READ : addr=0x87
# UVM_INFO verification/env/apb_driver.sv(75) @ 4805000: uvm_test_top.env.agent.drvh [DRIVER] GOT READ DATA: addr=0x87 rdata=0x1
# UVM_ERROR verification/env/apb_scoreboard.sv(68) @ 4805000: uvm_test_top.env.scb [SCB] FAIL: addr=0x87 expected=0x23a1f581 actual=0x1
# UVM_INFO verification/env/apb_driver.sv(51) @ 4815000: uvm_test_top.env.agent.drvh [DRIVER] SEND WRITE: addr=0x22 wdata=0x65314bb7
# UVM_INFO verification/env/apb_driver.sv(55) @ 4875000: uvm_test_top.env.agent.drvh [DRIVER] SEND READ : addr=0x22
# UVM_INFO verification/env/apb_driver.sv(75) @ 4925000: uvm_test_top.env.agent.drvh [DRIVER] GOT READ DATA: addr=0x22 rdata=0x1
# UVM_ERROR verification/env/apb_scoreboard.sv(68) @ 4925000: uvm_test_top.env.scb [SCB] FAIL: addr=0x22 expected=0x65314bb7 actual=0x1
# UVM_INFO verification/env/apb_driver.sv(51) @ 4935000: uvm_test_top.env.agent.drvh [DRIVER] SEND WRITE: addr=0x5d wdata=0x712fcf4
# UVM_INFO verification/env/apb_driver.sv(55) @ 4995000: uvm_test_top.env.agent.drvh [DRIVER] SEND READ : addr=0x5d
# UVM_INFO verification/env/apb_driver.sv(75) @ 5045000: uvm_test_top.env.agent.drvh [DRIVER] GOT READ DATA: addr=0x5d rdata=0x0
# UVM_ERROR verification/env/apb_scoreboard.sv(68) @ 5045000: uvm_test_top.env.scb [SCB] FAIL: addr=0x5d expected=0x712fcf4 actual=0x0
# UVM_INFO verification/env/apb_driver.sv(51) @ 5055000: uvm_test_top.env.agent.drvh [DRIVER] SEND WRITE: addr=0xcf wdata=0x6a254c8b
# UVM_INFO verification/env/apb_driver.sv(55) @ 5115000: uvm_test_top.env.agent.drvh [DRIVER] SEND READ : addr=0xcf
# UVM_INFO verification/env/apb_driver.sv(75) @ 5165000: uvm_test_top.env.agent.drvh [DRIVER] GOT READ DATA: addr=0xcf rdata=0x1
# UVM_ERROR verification/env/apb_scoreboard.sv(68) @ 5165000: uvm_test_top.env.scb [SCB] FAIL: addr=0xcf expected=0x6a254c8b actual=0x1
# UVM_INFO verification/env/apb_driver.sv(51) @ 5175000: uvm_test_top.env.agent.drvh [DRIVER] SEND WRITE: addr=0xb8 wdata=0xc0214c96
# UVM_INFO verification/env/apb_driver.sv(55) @ 5235000: uvm_test_top.env.agent.drvh [DRIVER] SEND READ : addr=0xb8
# UVM_INFO verification/env/apb_driver.sv(75) @ 5285000: uvm_test_top.env.agent.drvh [DRIVER] GOT READ DATA: addr=0xb8 rdata=0x0
# UVM_ERROR verification/env/apb_scoreboard.sv(68) @ 5285000: uvm_test_top.env.scb [SCB] FAIL: addr=0xb8 expected=0xc0214c96 actual=0x0
# UVM_INFO verification/env/apb_driver.sv(51) @ 5295000: uvm_test_top.env.agent.drvh [DRIVER] SEND WRITE: addr=0x54 wdata=0xdbadf77d
# UVM_INFO verification/env/apb_driver.sv(55) @ 5355000: uvm_test_top.env.agent.drvh [DRIVER] SEND READ : addr=0x54
# UVM_INFO verification/env/apb_driver.sv(75) @ 5405000: uvm_test_top.env.agent.drvh [DRIVER] GOT READ DATA: addr=0x54 rdata=0x1
# UVM_ERROR verification/env/apb_scoreboard.sv(68) @ 5405000: uvm_test_top.env.scb [SCB] FAIL: addr=0x54 expected=0xdbadf77d actual=0x1
# UVM_INFO verification/env/apb_driver.sv(51) @ 5415000: uvm_test_top.env.agent.drvh [DRIVER] SEND WRITE: addr=0xd1 wdata=0x4f38389d
# UVM_INFO verification/env/apb_driver.sv(55) @ 5475000: uvm_test_top.env.agent.drvh [DRIVER] SEND READ : addr=0xd1
# UVM_INFO verification/env/apb_driver.sv(75) @ 5525000: uvm_test_top.env.agent.drvh [DRIVER] GOT READ DATA: addr=0xd1 rdata=0x1
# UVM_ERROR verification/env/apb_scoreboard.sv(68) @ 5525000: uvm_test_top.env.scb [SCB] FAIL: addr=0xd1 expected=0x4f38389d actual=0x1
# UVM_INFO verification/env/apb_driver.sv(51) @ 5535000: uvm_test_top.env.agent.drvh [DRIVER] SEND WRITE: addr=0x21 wdata=0x9536136d
# UVM_INFO verification/env/apb_driver.sv(55) @ 5595000: uvm_test_top.env.agent.drvh [DRIVER] SEND READ : addr=0x21
# UVM_INFO verification/env/apb_driver.sv(75) @ 5645000: uvm_test_top.env.agent.drvh [DRIVER] GOT READ DATA: addr=0x21 rdata=0x1
# UVM_ERROR verification/env/apb_scoreboard.sv(68) @ 5645000: uvm_test_top.env.scb [SCB] FAIL: addr=0x21 expected=0x9536136d actual=0x1
# UVM_INFO verification/env/apb_driver.sv(51) @ 5655000: uvm_test_top.env.agent.drvh [DRIVER] SEND WRITE: addr=0xc4 wdata=0x7a5858ff
# UVM_INFO verification/env/apb_driver.sv(55) @ 5715000: uvm_test_top.env.agent.drvh [DRIVER] SEND READ : addr=0xc4
# UVM_INFO verification/env/apb_driver.sv(75) @ 5765000: uvm_test_top.env.agent.drvh [DRIVER] GOT READ DATA: addr=0xc4 rdata=0x1
# UVM_ERROR verification/env/apb_scoreboard.sv(68) @ 5765000: uvm_test_top.env.scb [SCB] FAIL: addr=0xc4 expected=0x7a5858ff actual=0x1
# UVM_INFO verification/env/apb_driver.sv(51) @ 5775000: uvm_test_top.env.agent.drvh [DRIVER] SEND WRITE: addr=0x61 wdata=0xa063b690
# UVM_INFO verification/env/apb_driver.sv(55) @ 5835000: uvm_test_top.env.agent.drvh [DRIVER] SEND READ : addr=0x61
# UVM_INFO verification/env/apb_driver.sv(75) @ 5885000: uvm_test_top.env.agent.drvh [DRIVER] GOT READ DATA: addr=0x61 rdata=0x0
# UVM_ERROR verification/env/apb_scoreboard.sv(68) @ 5885000: uvm_test_top.env.scb [SCB] FAIL: addr=0x61 expected=0xa063b690 actual=0x0
# UVM_INFO verification/env/apb_driver.sv(51) @ 5895000: uvm_test_top.env.agent.drvh [DRIVER] SEND WRITE: addr=0xc0 wdata=0xd73e5127
# UVM_INFO verification/env/apb_driver.sv(55) @ 5955000: uvm_test_top.env.agent.drvh [DRIVER] SEND READ : addr=0xc0
# UVM_INFO verification/env/apb_driver.sv(75) @ 6005000: uvm_test_top.env.agent.drvh [DRIVER] GOT READ DATA: addr=0xc0 rdata=0x1
# UVM_ERROR verification/env/apb_scoreboard.sv(68) @ 6005000: uvm_test_top.env.scb [SCB] FAIL: addr=0xc0 expected=0xd73e5127 actual=0x1
# UVM_INFO verilog_src/uvm-1.1d/src/base/uvm_objection.svh(1267) @ 6105000: reporter [TEST_DONE] 'run' phase is ready to proceed to the 'extract' phase
# UVM_INFO verification/env/apb_coverage.sv(71) @ 6105000: uvm_test_top.env.cov [COVERAGE] Functional coverage = 62.00 %
# UVM_INFO verification/env/apb_scoreboard.sv(81) @ 6105000: uvm_test_top.env.scb [SCB] ------------ SCOREBOARD SUMMARY ------------
# UVM_INFO verification/env/apb_scoreboard.sv(82) @ 6105000: uvm_test_top.env.scb [SCB] Writes=50 Reads=50 Pass=0 Fail=50 Unchecked=0
# UVM_ERROR verification/env/apb_scoreboard.sv(87) @ 6105000: uvm_test_top.env.scb [SCB] *** TEST FAILED ***
# 
# --- UVM Report Summary ---
# 
# ** Report counts by severity
# UVM_INFO :  157
# UVM_WARNING :    0
# UVM_ERROR :   51
# UVM_FATAL :    0
# ** Report counts by id
# [COVERAGE]     1
# [DRIVER]   150
# [RNTST]     1
# [SCB]    53
# [TEST]     1
# [TEST_DONE]     1
# [UVMTOP]     1
# ** Note: $finish    : D:/programs/questasim download/win64/../verilog_src/uvm-1.1d/src/base/uvm_root.svh(430)
#    Time: 6105 ns  Iteration: 54  Instance: /tb_top
# Break in Task uvm_pkg/uvm_root::run_test at D:/programs/questasim download/win64/../verilog_src/uvm-1.1d/src/base/uvm_root.svh line 430
# Coverage Report Totals BY INSTANCES: Number of Instances 10
# 
#     Enabled Coverage              Bins      Hits    Misses    Weight  Coverage
#     ----------------              ----      ----    ------    ------  --------
#     Branches                        25        24         1         1    96.00%
#     Conditions                      10        10         0         1   100.00%
#     Covergroups                      1        na        na         1    62.00%
#         Coverpoints/Crosses          5        na        na         1        na
#             Covergroup Bins         16         8         8         1    50.00%
#     Expressions                      8         8         0         1   100.00%
#     FSM States                       3         3         0         1   100.00%
#     FSM Transitions                  5         3         2         1    60.00%
#     Statements                      32        31         1         1    96.87%
#     Toggles                        620       619         1         1    99.83%
# Total coverage (filtered view): 89.33%
# 
# 
quit -sim
# ** Error: Acs sdne.
# 
#        Unable to replace existing ini file (C:/Users/LENOVO/Desktop/Digital_Electronics/ABP_Protol/APB_Verification.mpf).  File can not be renamed.
# ** Error: Acs sdne.
# 
#        Unable to replace existing ini file (C:/Users/LENOVO/Desktop/Digital_Electronics/ABP_Protol/APB_Verification.mpf).  File can not be renamed.
# ** Error: Acs sdne.
# 
#        Unable to replace existing ini file (C:/Users/LENOVO/Desktop/Digital_Electronics/ABP_Protol/APB_Verification.mpf).  File can not be renamed.
# End time: 11:50:13 on Oct 06,2026, Elapsed time: 0:06:40
# Errors: 3, Warnings: 3
do runn_APB.do
# QuestaSim-64 vlog 2021.1 Compiler 2021.01 Jan 19 2021
# Start time: 11:50:17 on Oct 06,2026
# vlog -reportprogress 300 -sv -cover bcesft rtl/master.sv rtl/slave.sv rtl/apb_top.sv 
# -- Compiling module apb_master
# -- Compiling module apb_slave
# -- Compiling module apb_top
# 
# Top level modules:
# 	apb_top
# End time: 11:50:17 on Oct 06,2026, Elapsed time: 0:00:00
# Errors: 0, Warnings: 0
# QuestaSim-64 vlog 2021.1 Compiler 2021.01 Jan 19 2021
# Start time: 11:50:17 on Oct 06,2026
# vlog -reportprogress 300 -sv "+incdir+." rtl/apb_interface.sv 
# -- Compiling interface apb_interface
# 
# Top level modules:
# 	--none--
# End time: 11:50:17 on Oct 06,2026, Elapsed time: 0:00:00
# Errors: 0, Warnings: 0
# QuestaSim-64 vlog 2021.1 Compiler 2021.01 Jan 19 2021
# Start time: 11:50:17 on Oct 06,2026
# vlog -reportprogress 300 -sv "+incdir+." verification/env/apb_env_pkg.sv 
# -- Compiling package apb_env_pkg
# -- Importing package mtiUvm.uvm_pkg (uvm-1.1d Built-in)
# ** Note: (vlog-2286) verification/env/apb_env_pkg.sv(7): Using implicit +incdir+D:/programs/questasim download/uvm-1.1d/../verilog_src/uvm-1.1d/src from import uvm_pkg
# 
# Top level modules:
# 	--none--
# End time: 11:50:17 on Oct 06,2026, Elapsed time: 0:00:00
# Errors: 0, Warnings: 0
# QuestaSim-64 vlog 2021.1 Compiler 2021.01 Jan 19 2021
# Start time: 11:50:17 on Oct 06,2026
# vlog -reportprogress 300 -sv "+incdir+." verification/sequence/apb_sequence_pkg.sv 
# -- Compiling package apb_seq_pkg
# -- Importing package mtiUvm.uvm_pkg (uvm-1.1d Built-in)
# ** Note: (vlog-2286) verification/sequence/apb_sequence_pkg.sv(7): Using implicit +incdir+D:/programs/questasim download/uvm-1.1d/../verilog_src/uvm-1.1d/src from import uvm_pkg
# -- Importing package apb_env_pkg
# 
# Top level modules:
# 	--none--
# End time: 11:50:17 on Oct 06,2026, Elapsed time: 0:00:00
# Errors: 0, Warnings: 0
# QuestaSim-64 vlog 2021.1 Compiler 2021.01 Jan 19 2021
# Start time: 11:50:17 on Oct 06,2026
# vlog -reportprogress 300 -sv "+incdir+." verification/test/apb_test_pkg.sv 
# -- Compiling package apb_test_pkg
# -- Importing package mtiUvm.uvm_pkg (uvm-1.1d Built-in)
# ** Note: (vlog-2286) verification/test/apb_test_pkg.sv(7): Using implicit +incdir+D:/programs/questasim download/uvm-1.1d/../verilog_src/uvm-1.1d/src from import uvm_pkg
# -- Importing package apb_env_pkg
# -- Importing package apb_seq_pkg
# 
# Top level modules:
# 	--none--
# End time: 11:50:17 on Oct 06,2026, Elapsed time: 0:00:00
# Errors: 0, Warnings: 0
# QuestaSim-64 vlog 2021.1 Compiler 2021.01 Jan 19 2021
# Start time: 11:50:17 on Oct 06,2026
# vlog -reportprogress 300 -sv "+incdir+." verification/top/apb_tb.sv 
# -- Compiling module tb_top
# -- Importing package mtiUvm.uvm_pkg (uvm-1.1d Built-in)
# ** Note: (vlog-2286) verification/top/apb_tb.sv(6): Using implicit +incdir+D:/programs/questasim download/uvm-1.1d/../verilog_src/uvm-1.1d/src from import uvm_pkg
# -- Importing package apb_env_pkg
# -- Importing package apb_test_pkg
# -- Importing package apb_seq_pkg
# 
# Top level modules:
# 	tb_top
# End time: 11:50:17 on Oct 06,2026, Elapsed time: 0:00:00
# Errors: 0, Warnings: 0
# vsim -c -coverage -onfinish stop work.tb_top "+UVM_TESTNAME=apb_rd_wr_test" "+UVM_VERBOSITY=UVM_LOW" 
# Start time: 11:50:18 on Oct 06,2026
# ** Note: (vsim-3812) Design is being optimized...
# ** Note: (vopt-143) Recognized 1 FSM in module "apb_master(fast)".
# Loading sv_std.std
# Loading work.apb_interface(fast)
# Loading mtiUvm.uvm_pkg(fast)
# Loading work.apb_env_pkg(fast)
# Loading work.apb_seq_pkg(fast)
# Loading work.apb_test_pkg(fast)
# Loading mtiUvm.questa_uvm_pkg(fast)
# Loading work.tb_top(fast)
# Loading work.apb_top(fast)
# Loading D:/programs/questasim download/uvm-1.1d\win64\uvm_dpi.dll
# ----------------------------------------------------------------
# UVM-1.1d
# (C) 2007-2013 Mentor Graphics Corporation
# (C) 2007-2013 Cadence Design Systems, Inc.
# (C) 2006-2013 Synopsys, Inc.
# (C) 2011-2013 Cypress Semiconductor Corp.
# ----------------------------------------------------------------
# 
#   ***********       IMPORTANT RELEASE NOTES         ************
# 
#   You are using a version of the UVM library that has been compiled
#   with `UVM_NO_DEPRECATED undefined.
#   See http://www.eda.org/svdb/view.php?id=3313 for more details.
# 
#   You are using a version of the UVM library that has been compiled
#   with `UVM_OBJECT_MUST_HAVE_CONSTRUCTOR undefined.
#   See http://www.eda.org/svdb/view.php?id=3770 for more details.
# 
#       (Specify +UVM_NO_RELNOTES to turn off this notice)
# 
# UVM_INFO @ 0: reporter [RNTST] Running test apb_rd_wr_test...
# ** Warning: (vsim-8474) A higher value '4294967295' is found in bin 'all_ones' of Coverpoint 'cp_rdata'. It is invalid and will be ignored.
#    Time: 0 ps  Iteration: 7  Process: /uvm_pkg::uvm_phase::m_run_phases/#FORK#1847_4f63fe8c File: verification/env/apb_coverage.sv Line: 38
# ** Warning: (vsim-8549) After dropping the illegal, ignore or invalid values, the values list associated with scalar bin 'all_ones' in Coverpoint 'cp_rdata' of Covergroup instance '\/apb_env_pkg::apb_coverage::apb_cg ' has converged to empty list. The bin will be taken out of coverage calculation.
#    Time: 0 ps  Iteration: 7  Region: /uvm_pkg::uvm_phase::m_run_phases
# UVM_INFO @ 0: reporter [UVMTOP] UVM testbench topology:
# --------------------------------------------------------------
# Name                       Type                    Size  Value
# --------------------------------------------------------------
# uvm_test_top               apb_rd_wr_test          -     @471 
#   env                      apb_env                 -     @478 
#     agent                  apb_agent               -     @485 
#       drvh                 apb_driver              -     @508 
#         rsp_port           uvm_analysis_port       -     @523 
#         seq_item_port      uvm_seq_item_pull_port  -     @515 
#       monh                 apb_monitor             -     @531 
#         mon_ap             uvm_analysis_port       -     @648 
#       sqrh                 apb_sequencer           -     @538 
#         rsp_export         uvm_analysis_export     -     @545 
#         seq_item_export    uvm_seq_item_pull_imp   -     @639 
#         arbitration_queue  array                   0     -    
#         lock_queue         array                   0     -    
#         num_last_reqs      integral                32    'd1  
#         num_last_rsps      integral                32    'd1  
#     cov                    apb_coverage            -     @499 
#       cov_ap               uvm_analysis_imp        -     @662 
#     scb                    apb_scoreboard          -     @492 
#       sb_imp               uvm_analysis_imp        -     @670 
# --------------------------------------------------------------
# 
# UVM_INFO verification/test/apb_rd_wr_test.sv(17) @ 0: uvm_test_top [TEST] Starting apb_rd_wr_seq
# UVM_INFO verification/env/apb_driver.sv(51) @ 15000: uvm_test_top.env.agent.drvh [DRIVER] SEND WRITE: addr=0xaa wdata=0x4b55819e
# UVM_INFO verification/env/apb_driver.sv(55) @ 75000: uvm_test_top.env.agent.drvh [DRIVER] SEND READ : addr=0xaa
# UVM_INFO verification/env/apb_driver.sv(75) @ 125000: uvm_test_top.env.agent.drvh [DRIVER] GOT READ DATA: addr=0xaa rdata=0x0
# UVM_ERROR verification/env/apb_scoreboard.sv(68) @ 125000: uvm_test_top.env.scb [SCB] FAIL: addr=0xaa expected=0x4b55819e actual=0x0
# UVM_INFO verification/env/apb_driver.sv(51) @ 135000: uvm_test_top.env.agent.drvh [DRIVER] SEND WRITE: addr=0xcf wdata=0xf2859a43
# UVM_INFO verification/env/apb_driver.sv(55) @ 195000: uvm_test_top.env.agent.drvh [DRIVER] SEND READ : addr=0xcf
# UVM_INFO verification/env/apb_driver.sv(75) @ 245000: uvm_test_top.env.agent.drvh [DRIVER] GOT READ DATA: addr=0xcf rdata=0x1
# UVM_ERROR verification/env/apb_scoreboard.sv(68) @ 245000: uvm_test_top.env.scb [SCB] FAIL: addr=0xcf expected=0xf2859a43 actual=0x1
# UVM_INFO verilog_src/uvm-1.1d/src/base/uvm_objection.svh(1267) @ 345000: reporter [TEST_DONE] 'run' phase is ready to proceed to the 'extract' phase
# UVM_INFO verification/env/apb_coverage.sv(71) @ 345000: uvm_test_top.env.cov [COVERAGE] Functional coverage = 58.00 %
# UVM_INFO verification/env/apb_scoreboard.sv(81) @ 345000: uvm_test_top.env.scb [SCB] ------------ SCOREBOARD SUMMARY ------------
# UVM_INFO verification/env/apb_scoreboard.sv(82) @ 345000: uvm_test_top.env.scb [SCB] Writes=2 Reads=2 Pass=0 Fail=2 Unchecked=0
# UVM_ERROR verification/env/apb_scoreboard.sv(87) @ 345000: uvm_test_top.env.scb [SCB] *** TEST FAILED ***
# 
# --- UVM Report Summary ---
# 
# ** Report counts by severity
# UVM_INFO :   13
# UVM_WARNING :    0
# UVM_ERROR :    3
# UVM_FATAL :    0
# ** Report counts by id
# [COVERAGE]     1
# [DRIVER]     6
# [RNTST]     1
# [SCB]     5
# [TEST]     1
# [TEST_DONE]     1
# [UVMTOP]     1
# ** Note: $finish    : D:/programs/questasim download/win64/../verilog_src/uvm-1.1d/src/base/uvm_root.svh(430)
#    Time: 345 ns  Iteration: 54  Instance: /tb_top
# Break in Task uvm_pkg/uvm_root::run_test at D:/programs/questasim download/win64/../verilog_src/uvm-1.1d/src/base/uvm_root.svh line 430
# Coverage Report Totals BY INSTANCES: Number of Instances 10
# 
#     Enabled Coverage              Bins      Hits    Misses    Weight  Coverage
#     ----------------              ----      ----    ------    ------  --------
#     Branches                        25        24         1         1    96.00%
#     Conditions                      10        10         0         1   100.00%
#     Covergroups                      1        na        na         1    58.00%
#         Coverpoints/Crosses          5        na        na         1        na
#             Covergroup Bins         16         7         9         1    43.75%
#     Expressions                      8         8         0         1   100.00%
#     FSM States                       3         3         0         1   100.00%
#     FSM Transitions                  5         3         2         1    60.00%
#     Statements                      32        31         1         1    96.87%
#     Toggles                        620       426       194         1    68.70%
# Total coverage (filtered view): 84.94%
# 
# 
write format wave -window .main_pane.wave.interior.cs.body.pw.wf C:/Users/LENOVO/Desktop/Digital_Electronics/ABP_Protol/wave.do
quit -sim
# ** Error: Acs sdne.
# 
#        Unable to replace existing ini file (C:/Users/LENOVO/Desktop/Digital_Electronics/ABP_Protol/APB_Verification.mpf).  File can not be renamed.
# ** Error: Acs sdne.
# 
#        Unable to replace existing ini file (C:/Users/LENOVO/Desktop/Digital_Electronics/ABP_Protol/APB_Verification.mpf).  File can not be renamed.
# ** Error: Acs sdne.
# 
#        Unable to replace existing ini file (C:/Users/LENOVO/Desktop/Digital_Electronics/ABP_Protol/APB_Verification.mpf).  File can not be renamed.
# End time: 12:01:04 on Oct 06,2026, Elapsed time: 0:10:46
# Errors: 3, Warnings: 3
do runn_APB.do
# QuestaSim-64 vlog 2021.1 Compiler 2021.01 Jan 19 2021
# Start time: 12:01:09 on Oct 06,2026
# vlog -reportprogress 300 -sv -cover bcesft rtl/master.sv rtl/slave.sv rtl/apb_top.sv 
# -- Compiling module apb_master
# -- Compiling module apb_slave
# -- Compiling module apb_top
# 
# Top level modules:
# 	apb_top
# End time: 12:01:09 on Oct 06,2026, Elapsed time: 0:00:00
# Errors: 0, Warnings: 0
# QuestaSim-64 vlog 2021.1 Compiler 2021.01 Jan 19 2021
# Start time: 12:01:09 on Oct 06,2026
# vlog -reportprogress 300 -sv "+incdir+." rtl/apb_interface.sv 
# -- Compiling interface apb_interface
# 
# Top level modules:
# 	--none--
# End time: 12:01:09 on Oct 06,2026, Elapsed time: 0:00:00
# Errors: 0, Warnings: 0
# QuestaSim-64 vlog 2021.1 Compiler 2021.01 Jan 19 2021
# Start time: 12:01:09 on Oct 06,2026
# vlog -reportprogress 300 -sv "+incdir+." verification/env/apb_env_pkg.sv 
# -- Compiling package apb_env_pkg
# -- Importing package mtiUvm.uvm_pkg (uvm-1.1d Built-in)
# ** Note: (vlog-2286) verification/env/apb_env_pkg.sv(7): Using implicit +incdir+D:/programs/questasim download/uvm-1.1d/../verilog_src/uvm-1.1d/src from import uvm_pkg
# 
# Top level modules:
# 	--none--
# End time: 12:01:09 on Oct 06,2026, Elapsed time: 0:00:00
# Errors: 0, Warnings: 0
# QuestaSim-64 vlog 2021.1 Compiler 2021.01 Jan 19 2021
# Start time: 12:01:09 on Oct 06,2026
# vlog -reportprogress 300 -sv "+incdir+." verification/sequence/apb_sequence_pkg.sv 
# -- Compiling package apb_seq_pkg
# -- Importing package mtiUvm.uvm_pkg (uvm-1.1d Built-in)
# ** Note: (vlog-2286) verification/sequence/apb_sequence_pkg.sv(7): Using implicit +incdir+D:/programs/questasim download/uvm-1.1d/../verilog_src/uvm-1.1d/src from import uvm_pkg
# -- Importing package apb_env_pkg
# 
# Top level modules:
# 	--none--
# End time: 12:01:09 on Oct 06,2026, Elapsed time: 0:00:00
# Errors: 0, Warnings: 0
# QuestaSim-64 vlog 2021.1 Compiler 2021.01 Jan 19 2021
# Start time: 12:01:10 on Oct 06,2026
# vlog -reportprogress 300 -sv "+incdir+." verification/test/apb_test_pkg.sv 
# -- Compiling package apb_test_pkg
# -- Importing package mtiUvm.uvm_pkg (uvm-1.1d Built-in)
# ** Note: (vlog-2286) verification/test/apb_test_pkg.sv(7): Using implicit +incdir+D:/programs/questasim download/uvm-1.1d/../verilog_src/uvm-1.1d/src from import uvm_pkg
# -- Importing package apb_env_pkg
# -- Importing package apb_seq_pkg
# 
# Top level modules:
# 	--none--
# End time: 12:01:10 on Oct 06,2026, Elapsed time: 0:00:00
# Errors: 0, Warnings: 0
# QuestaSim-64 vlog 2021.1 Compiler 2021.01 Jan 19 2021
# Start time: 12:01:10 on Oct 06,2026
# vlog -reportprogress 300 -sv "+incdir+." verification/top/apb_tb.sv 
# -- Compiling module tb_top
# -- Importing package mtiUvm.uvm_pkg (uvm-1.1d Built-in)
# ** Note: (vlog-2286) verification/top/apb_tb.sv(6): Using implicit +incdir+D:/programs/questasim download/uvm-1.1d/../verilog_src/uvm-1.1d/src from import uvm_pkg
# -- Importing package apb_env_pkg
# -- Importing package apb_test_pkg
# -- Importing package apb_seq_pkg
# 
# Top level modules:
# 	tb_top
# End time: 12:01:10 on Oct 06,2026, Elapsed time: 0:00:00
# Errors: 0, Warnings: 0
# vsim -c -coverage -onfinish stop work.tb_top "+UVM_TESTNAME=apb_rd_wr_test" "+UVM_VERBOSITY=UVM_LOW" 
# Start time: 12:01:10 on Oct 06,2026
# ** Note: (vsim-3812) Design is being optimized...
# ** Note: (vopt-143) Recognized 1 FSM in module "apb_master(fast)".
# Loading sv_std.std
# Loading work.apb_interface(fast)
# Loading mtiUvm.uvm_pkg(fast)
# Loading work.apb_env_pkg(fast)
# Loading work.apb_seq_pkg(fast)
# Loading work.apb_test_pkg(fast)
# Loading mtiUvm.questa_uvm_pkg(fast)
# Loading work.tb_top(fast)
# Loading work.apb_top(fast)
# Loading D:/programs/questasim download/uvm-1.1d\win64\uvm_dpi.dll
# ----------------------------------------------------------------
# UVM-1.1d
# (C) 2007-2013 Mentor Graphics Corporation
# (C) 2007-2013 Cadence Design Systems, Inc.
# (C) 2006-2013 Synopsys, Inc.
# (C) 2011-2013 Cypress Semiconductor Corp.
# ----------------------------------------------------------------
# 
#   ***********       IMPORTANT RELEASE NOTES         ************
# 
#   You are using a version of the UVM library that has been compiled
#   with `UVM_NO_DEPRECATED undefined.
#   See http://www.eda.org/svdb/view.php?id=3313 for more details.
# 
#   You are using a version of the UVM library that has been compiled
#   with `UVM_OBJECT_MUST_HAVE_CONSTRUCTOR undefined.
#   See http://www.eda.org/svdb/view.php?id=3770 for more details.
# 
#       (Specify +UVM_NO_RELNOTES to turn off this notice)
# 
# UVM_INFO @ 0: reporter [RNTST] Running test apb_rd_wr_test...
# ** Warning: (vsim-8474) A higher value '4294967295' is found in bin 'all_ones' of Coverpoint 'cp_rdata'. It is invalid and will be ignored.
#    Time: 0 ps  Iteration: 7  Process: /uvm_pkg::uvm_phase::m_run_phases/#FORK#1847_4f63fe8c File: verification/env/apb_coverage.sv Line: 38
# ** Warning: (vsim-8549) After dropping the illegal, ignore or invalid values, the values list associated with scalar bin 'all_ones' in Coverpoint 'cp_rdata' of Covergroup instance '\/apb_env_pkg::apb_coverage::apb_cg ' has converged to empty list. The bin will be taken out of coverage calculation.
#    Time: 0 ps  Iteration: 7  Region: /uvm_pkg::uvm_phase::m_run_phases
# UVM_INFO @ 0: reporter [UVMTOP] UVM testbench topology:
# --------------------------------------------------------------
# Name                       Type                    Size  Value
# --------------------------------------------------------------
# uvm_test_top               apb_rd_wr_test          -     @471 
#   env                      apb_env                 -     @478 
#     agent                  apb_agent               -     @485 
#       drvh                 apb_driver              -     @508 
#         rsp_port           uvm_analysis_port       -     @523 
#         seq_item_port      uvm_seq_item_pull_port  -     @515 
#       monh                 apb_monitor             -     @531 
#         mon_ap             uvm_analysis_port       -     @648 
#       sqrh                 apb_sequencer           -     @538 
#         rsp_export         uvm_analysis_export     -     @545 
#         seq_item_export    uvm_seq_item_pull_imp   -     @639 
#         arbitration_queue  array                   0     -    
#         lock_queue         array                   0     -    
#         num_last_reqs      integral                32    'd1  
#         num_last_rsps      integral                32    'd1  
#     cov                    apb_coverage            -     @499 
#       cov_ap               uvm_analysis_imp        -     @662 
#     scb                    apb_scoreboard          -     @492 
#       sb_imp               uvm_analysis_imp        -     @670 
# --------------------------------------------------------------
# 
# UVM_INFO verification/test/apb_rd_wr_test.sv(17) @ 0: uvm_test_top [TEST] Starting apb_rd_wr_seq
# UVM_INFO verification/env/apb_driver.sv(51) @ 15000: uvm_test_top.env.agent.drvh [DRIVER] SEND WRITE: addr=0xaa wdata=0x4b55819e
# UVM_INFO verification/env/apb_monitor.sv(44) @ 65000: uvm_test_top.env.agent.monh [MONITOR] WRITE addr=0xaa wdata=0x4b55819e rdata=0x0
# UVM_INFO verification/env/apb_driver.sv(55) @ 75000: uvm_test_top.env.agent.drvh [DRIVER] SEND READ : addr=0xaa
# UVM_INFO verification/env/apb_driver.sv(75) @ 125000: uvm_test_top.env.agent.drvh [DRIVER] GOT READ DATA: addr=0xaa rdata=0x0
# UVM_INFO verification/env/apb_monitor.sv(44) @ 125000: uvm_test_top.env.agent.monh [MONITOR] READ  addr=0xaa wdata=0xd88f0471 rdata=0x0
# UVM_ERROR verification/env/apb_scoreboard.sv(68) @ 125000: uvm_test_top.env.scb [SCB] FAIL: addr=0xaa expected=0x4b55819e actual=0x0
# UVM_INFO verification/env/apb_driver.sv(51) @ 135000: uvm_test_top.env.agent.drvh [DRIVER] SEND WRITE: addr=0xcf wdata=0xf2859a43
# UVM_INFO verification/env/apb_monitor.sv(44) @ 185000: uvm_test_top.env.agent.monh [MONITOR] WRITE addr=0xcf wdata=0xf2859a43 rdata=0x0
# UVM_INFO verification/env/apb_driver.sv(55) @ 195000: uvm_test_top.env.agent.drvh [DRIVER] SEND READ : addr=0xcf
# UVM_INFO verification/env/apb_driver.sv(75) @ 245000: uvm_test_top.env.agent.drvh [DRIVER] GOT READ DATA: addr=0xcf rdata=0x1
# UVM_INFO verification/env/apb_monitor.sv(44) @ 245000: uvm_test_top.env.agent.monh [MONITOR] READ  addr=0xcf wdata=0x9dc6cd3 rdata=0x1
# UVM_ERROR verification/env/apb_scoreboard.sv(68) @ 245000: uvm_test_top.env.scb [SCB] FAIL: addr=0xcf expected=0xf2859a43 actual=0x1
# UVM_INFO verilog_src/uvm-1.1d/src/base/uvm_objection.svh(1267) @ 345000: reporter [TEST_DONE] 'run' phase is ready to proceed to the 'extract' phase
# UVM_INFO verification/env/apb_coverage.sv(71) @ 345000: uvm_test_top.env.cov [COVERAGE] Functional coverage = 58.00 %
# UVM_INFO verification/env/apb_scoreboard.sv(81) @ 345000: uvm_test_top.env.scb [SCB] ------------ SCOREBOARD SUMMARY ------------
# UVM_INFO verification/env/apb_scoreboard.sv(82) @ 345000: uvm_test_top.env.scb [SCB] Writes=2 Reads=2 Pass=0 Fail=2 Unchecked=0
# UVM_ERROR verification/env/apb_scoreboard.sv(87) @ 345000: uvm_test_top.env.scb [SCB] *** TEST FAILED ***
# 
# --- UVM Report Summary ---
# 
# ** Report counts by severity
# UVM_INFO :   17
# UVM_WARNING :    0
# UVM_ERROR :    3
# UVM_FATAL :    0
# ** Report counts by id
# [COVERAGE]     1
# [DRIVER]     6
# [MONITOR]     4
# [RNTST]     1
# [SCB]     5
# [TEST]     1
# [TEST_DONE]     1
# [UVMTOP]     1
# ** Note: $finish    : D:/programs/questasim download/win64/../verilog_src/uvm-1.1d/src/base/uvm_root.svh(430)
#    Time: 345 ns  Iteration: 54  Instance: /tb_top
# Break in Task uvm_pkg/uvm_root::run_test at D:/programs/questasim download/win64/../verilog_src/uvm-1.1d/src/base/uvm_root.svh line 430
# Coverage Report Totals BY INSTANCES: Number of Instances 10
# 
#     Enabled Coverage              Bins      Hits    Misses    Weight  Coverage
#     ----------------              ----      ----    ------    ------  --------
#     Branches                        25        24         1         1    96.00%
#     Conditions                      10        10         0         1   100.00%
#     Covergroups                      1        na        na         1    58.00%
#         Coverpoints/Crosses          5        na        na         1        na
#             Covergroup Bins         16         7         9         1    43.75%
#     Expressions                      8         8         0         1   100.00%
#     FSM States                       3         3         0         1   100.00%
#     FSM Transitions                  5         3         2         1    60.00%
#     Statements                      32        31         1         1    96.87%
#     Toggles                        620       426       194         1    68.70%
# Total coverage (filtered view): 84.94%
# 
# 
quit -sim
# ** Error: Acs sdne.
# 
#        Unable to replace existing ini file (C:/Users/LENOVO/Desktop/Digital_Electronics/ABP_Protol/APB_Verification.mpf).  File can not be renamed.
# ** Error: Acs sdne.
# 
#        Unable to replace existing ini file (C:/Users/LENOVO/Desktop/Digital_Electronics/ABP_Protol/APB_Verification.mpf).  File can not be renamed.
# ** Error: Acs sdne.
# 
#        Unable to replace existing ini file (C:/Users/LENOVO/Desktop/Digital_Electronics/ABP_Protol/APB_Verification.mpf).  File can not be renamed.
# End time: 12:12:48 on Oct 06,2026, Elapsed time: 0:11:38
# Errors: 3, Warnings: 3
do runn_APB.do
# QuestaSim-64 vlog 2021.1 Compiler 2021.01 Jan 19 2021
# Start time: 12:13:12 on Oct 06,2026
# vlog -reportprogress 300 -sv -cover bcesft rtl/master.sv rtl/slave.sv rtl/apb_top.sv 
# -- Compiling module apb_master
# -- Compiling module apb_slave
# -- Compiling module apb_top
# 
# Top level modules:
# 	apb_top
# End time: 12:13:12 on Oct 06,2026, Elapsed time: 0:00:00
# Errors: 0, Warnings: 0
# QuestaSim-64 vlog 2021.1 Compiler 2021.01 Jan 19 2021
# Start time: 12:13:12 on Oct 06,2026
# vlog -reportprogress 300 -sv "+incdir+." rtl/apb_interface.sv 
# -- Compiling interface apb_interface
# 
# Top level modules:
# 	--none--
# End time: 12:13:12 on Oct 06,2026, Elapsed time: 0:00:00
# Errors: 0, Warnings: 0
# QuestaSim-64 vlog 2021.1 Compiler 2021.01 Jan 19 2021
# Start time: 12:13:12 on Oct 06,2026
# vlog -reportprogress 300 -sv "+incdir+." verification/env/apb_env_pkg.sv 
# -- Compiling package apb_env_pkg
# -- Importing package mtiUvm.uvm_pkg (uvm-1.1d Built-in)
# ** Note: (vlog-2286) verification/env/apb_env_pkg.sv(7): Using implicit +incdir+D:/programs/questasim download/uvm-1.1d/../verilog_src/uvm-1.1d/src from import uvm_pkg
# 
# Top level modules:
# 	--none--
# End time: 12:13:12 on Oct 06,2026, Elapsed time: 0:00:00
# Errors: 0, Warnings: 0
# QuestaSim-64 vlog 2021.1 Compiler 2021.01 Jan 19 2021
# Start time: 12:13:12 on Oct 06,2026
# vlog -reportprogress 300 -sv "+incdir+." verification/sequence/apb_sequence_pkg.sv 
# -- Compiling package apb_seq_pkg
# -- Importing package mtiUvm.uvm_pkg (uvm-1.1d Built-in)
# ** Note: (vlog-2286) verification/sequence/apb_sequence_pkg.sv(7): Using implicit +incdir+D:/programs/questasim download/uvm-1.1d/../verilog_src/uvm-1.1d/src from import uvm_pkg
# -- Importing package apb_env_pkg
# 
# Top level modules:
# 	--none--
# End time: 12:13:12 on Oct 06,2026, Elapsed time: 0:00:00
# Errors: 0, Warnings: 0
# QuestaSim-64 vlog 2021.1 Compiler 2021.01 Jan 19 2021
# Start time: 12:13:12 on Oct 06,2026
# vlog -reportprogress 300 -sv "+incdir+." verification/test/apb_test_pkg.sv 
# -- Compiling package apb_test_pkg
# -- Importing package mtiUvm.uvm_pkg (uvm-1.1d Built-in)
# ** Note: (vlog-2286) verification/test/apb_test_pkg.sv(7): Using implicit +incdir+D:/programs/questasim download/uvm-1.1d/../verilog_src/uvm-1.1d/src from import uvm_pkg
# -- Importing package apb_env_pkg
# -- Importing package apb_seq_pkg
# 
# Top level modules:
# 	--none--
# End time: 12:13:12 on Oct 06,2026, Elapsed time: 0:00:00
# Errors: 0, Warnings: 0
# QuestaSim-64 vlog 2021.1 Compiler 2021.01 Jan 19 2021
# Start time: 12:13:12 on Oct 06,2026
# vlog -reportprogress 300 -sv "+incdir+." verification/top/apb_tb.sv 
# -- Compiling module tb_top
# -- Importing package mtiUvm.uvm_pkg (uvm-1.1d Built-in)
# ** Note: (vlog-2286) verification/top/apb_tb.sv(6): Using implicit +incdir+D:/programs/questasim download/uvm-1.1d/../verilog_src/uvm-1.1d/src from import uvm_pkg
# -- Importing package apb_env_pkg
# -- Importing package apb_test_pkg
# -- Importing package apb_seq_pkg
# 
# Top level modules:
# 	tb_top
# End time: 12:13:13 on Oct 06,2026, Elapsed time: 0:00:01
# Errors: 0, Warnings: 0
# vsim -c -coverage -onfinish stop work.tb_top "+UVM_TESTNAME=apb_rd_wr_test" "+UVM_VERBOSITY=UVM_LOW" 
# Start time: 12:13:13 on Oct 06,2026
# ** Note: (vsim-3812) Design is being optimized...
# ** Note: (vopt-143) Recognized 1 FSM in module "apb_master(fast)".
# Loading sv_std.std
# Loading work.apb_interface(fast)
# Loading mtiUvm.uvm_pkg(fast)
# Loading work.apb_env_pkg(fast)
# Loading work.apb_seq_pkg(fast)
# Loading work.apb_test_pkg(fast)
# Loading mtiUvm.questa_uvm_pkg(fast)
# Loading work.tb_top(fast)
# Loading work.apb_top(fast)
# Loading D:/programs/questasim download/uvm-1.1d\win64\uvm_dpi.dll
# ----------------------------------------------------------------
# UVM-1.1d
# (C) 2007-2013 Mentor Graphics Corporation
# (C) 2007-2013 Cadence Design Systems, Inc.
# (C) 2006-2013 Synopsys, Inc.
# (C) 2011-2013 Cypress Semiconductor Corp.
# ----------------------------------------------------------------
# 
#   ***********       IMPORTANT RELEASE NOTES         ************
# 
#   You are using a version of the UVM library that has been compiled
#   with `UVM_NO_DEPRECATED undefined.
#   See http://www.eda.org/svdb/view.php?id=3313 for more details.
# 
#   You are using a version of the UVM library that has been compiled
#   with `UVM_OBJECT_MUST_HAVE_CONSTRUCTOR undefined.
#   See http://www.eda.org/svdb/view.php?id=3770 for more details.
# 
#       (Specify +UVM_NO_RELNOTES to turn off this notice)
# 
# UVM_INFO @ 0: reporter [RNTST] Running test apb_rd_wr_test...
# UVM_INFO @ 0: reporter [UVMTOP] UVM testbench topology:
# --------------------------------------------------------------
# Name                       Type                    Size  Value
# --------------------------------------------------------------
# uvm_test_top               apb_rd_wr_test          -     @471 
